CITIFILE A.01.01
#Momentum: B.09.10.214 (*) 371.400 May 26 2011 
#Momentum Date and Time: Wed Jan 15 14:38:12 2014

NAME Momentum.SP

#  mode: MW    project: proj    reference: S_50

CONSTANT NBR_OF_PORTS 2

CONSTANT NORMALIZATION 1

VAR freq MAG 14

DATA S[1,1] RI
DATA S[1,2] RI
DATA S[2,1] RI
DATA S[2,2] RI
DATA S_50[1,1] RI
DATA S_50[1,2] RI
DATA S_50[2,1] RI
DATA S_50[2,2] RI
DATA S_Z0[1,1] RI
DATA S_Z0[1,2] RI
DATA S_Z0[2,1] RI
DATA S_Z0[2,2] RI
DATA GAMMA[1] RI
DATA GAMMA[2] RI
DATA Z0[1] RI
DATA Z0[2] RI
DATA PORTZ[1] RI
DATA PORTZ[2] RI

VAR_LIST_BEGIN
	 2000000000
	 2166666667
	 2333333333
	 2370370370
	 2388888889
	 2412037037
	 2435185185
	 2466049383
	 2496913580
	 2527777778
	 2666666667
	 2722222223
	 2833333334
	 3000000000
VAR_LIST_END

BEGIN
	-0.53621333,	 0.827377728
	-0.171798923,	 0.966886811
	 0.418656183,	 0.838410573
	 0.605672837,	 0.470661586
	 0.338953791,	 0.186959978
	 0.199725446,	 0.355829837
	 0.0701499489,	 0.180769285
	-0.145677563,	 0.528957906
	-0.0504800399,	 0.334752923
	-0.29305663,	 0.809548177
	 0.385248004,	 0.899963797
	 0.514593773,	 0.835678057
	 0.710139994,	 0.67985387
	 0.898182044,	 0.400494363
END
BEGIN
	-0.000465364449,	 0.000364306516
	-0.00253420427,	 0.00099597895
	-0.0411408266,	 0.045265131
	-0.0173845424,	 0.249683838
	 0.371406451,	 0.352110069
	 0.57118801,	-0.278415131
	 0.0800444138,	-0.700262028
	-0.551849289,	-0.235970218
	-0.35584462,	 0.474385914
	 0.145070528,	 0.127052053
	 0.00813553388,	-0.00274250383
	 0.00417842324,	-0.00237201764
	 0.00153493346,	-0.00178971644
	 0.000335926034,	-0.00151948808
END
BEGIN
	-0.000465364449,	 0.000364306516
	-0.00253420427,	 0.00099597895
	-0.0411408266,	 0.045265131
	-0.0173845424,	 0.249683838
	 0.371406451,	 0.352110069
	 0.57118801,	-0.278415131
	 0.0800444138,	-0.700262028
	-0.551849289,	-0.235970218
	-0.35584462,	 0.474385914
	 0.145070528,	 0.127052053
	 0.00813553388,	-0.00274250383
	 0.00417842324,	-0.00237201764
	 0.00153493346,	-0.00178971644
	 0.000335926034,	-0.00151948808
END
BEGIN
	-0.536213201,	 0.827377813
	-0.171798851,	 0.966886826
	 0.418656376,	 0.838410381
	 0.605672941,	 0.470660253
	 0.338951485,	 0.186957682
	 0.199721879,	 0.355831429
	 0.070149224,	 0.180773221
	-0.145675924,	 0.528959126
	-0.0504797582,	 0.334753812
	-0.293055184,	 0.80954893
	 0.385248524,	 0.899963592
	 0.514594258,	 0.83567777
	 0.71014035,	 0.679853503
	 0.898182217,	 0.400493981
END
BEGIN
	-0.53621333,	 0.827377728
	-0.171798923,	 0.966886811
	 0.418656183,	 0.838410573
	 0.605672837,	 0.470661586
	 0.338953791,	 0.186959978
	 0.199725446,	 0.355829837
	 0.0701499489,	 0.180769285
	-0.145677563,	 0.528957906
	-0.0504800399,	 0.334752923
	-0.29305663,	 0.809548177
	 0.385248004,	 0.899963797
	 0.514593773,	 0.835678057
	 0.710139994,	 0.67985387
	 0.898182044,	 0.400494363
END
BEGIN
	-0.000465364449,	 0.000364306516
	-0.00253420427,	 0.00099597895
	-0.0411408266,	 0.045265131
	-0.0173845424,	 0.249683838
	 0.371406451,	 0.352110069
	 0.57118801,	-0.278415131
	 0.0800444138,	-0.700262028
	-0.551849289,	-0.235970218
	-0.35584462,	 0.474385914
	 0.145070528,	 0.127052053
	 0.00813553388,	-0.00274250383
	 0.00417842324,	-0.00237201764
	 0.00153493346,	-0.00178971644
	 0.000335926034,	-0.00151948808
END
BEGIN
	-0.000465364449,	 0.000364306516
	-0.00253420427,	 0.00099597895
	-0.0411408266,	 0.045265131
	-0.0173845424,	 0.249683838
	 0.371406451,	 0.352110069
	 0.57118801,	-0.278415131
	 0.0800444138,	-0.700262028
	-0.551849289,	-0.235970218
	-0.35584462,	 0.474385914
	 0.145070528,	 0.127052053
	 0.00813553388,	-0.00274250383
	 0.00417842324,	-0.00237201764
	 0.00153493346,	-0.00178971644
	 0.000335926034,	-0.00151948808
END
BEGIN
	-0.536213201,	 0.827377813
	-0.171798851,	 0.966886826
	 0.418656376,	 0.838410381
	 0.605672941,	 0.470660253
	 0.338951485,	 0.186957682
	 0.199721879,	 0.355831429
	 0.070149224,	 0.180773221
	-0.145675924,	 0.528959126
	-0.0504797582,	 0.334753812
	-0.293055184,	 0.80954893
	 0.385248524,	 0.899963592
	 0.514594258,	 0.83567777
	 0.71014035,	 0.679853503
	 0.898182217,	 0.400493981
END
BEGIN
	-0.581894534,	 0.796584294
	-0.23598336,	 0.953528232
	 0.364782116,	 0.861182202
	 0.573057618,	 0.489807435
	 0.307059158,	 0.20069544
	 0.171315681,	 0.349706647
	 0.0179285936,	 0.177367231
	-0.180574762,	 0.53263973
	-0.0914028691,	 0.321780972
	-0.345537462,	 0.793474045
	 0.326643186,	 0.922302683
	 0.463487258,	 0.864347516
	 0.675423286,	 0.713211748
	 0.885162886,	 0.426053518
END
BEGIN
	-0.000466154379,	 0.000325186003
	-0.00255615286,	 0.000815765378
	-0.0448850105,	 0.0439388036
	-0.0266515413,	 0.25925014
	 0.37506031,	 0.364899751
	 0.584976263,	-0.268074528
	 0.0885047302,	-0.701321462
	-0.536724052,	-0.252666875
	-0.364292368,	 0.464060909
	 0.134830733,	 0.131748059
	 0.00849281092,	-0.00228147918
	 0.00445601503,	-0.00219519035
	 0.00169814042,	-0.00179730842
	 0.000403444719,	-0.00160527016
END
BEGIN
	-0.000466154379,	 0.000325186003
	-0.00255615286,	 0.000815765378
	-0.0448850105,	 0.0439388036
	-0.0266515413,	 0.25925014
	 0.37506031,	 0.364899751
	 0.584976263,	-0.268074528
	 0.0885047302,	-0.701321462
	-0.536724052,	-0.252666875
	-0.364292368,	 0.464060909
	 0.134830733,	 0.131748059
	 0.00849281092,	-0.00228147918
	 0.00445601503,	-0.00219519035
	 0.00169814042,	-0.00179730842
	 0.000403444719,	-0.00160527016
END
BEGIN
	-0.581894414,	 0.796584383
	-0.23598329,	 0.953528252
	 0.364782325,	 0.861182016
	 0.573057772,	 0.489806051
	 0.307056831,	 0.200693063
	 0.171312032,	 0.349708172
	 0.0179278204,	 0.17737117
	-0.180573186,	 0.532640993
	-0.0914026084,	 0.321781863
	-0.34553609,	 0.793474858
	 0.326643731,	 0.922302507
	 0.463487775,	 0.864347249
	 0.675423677,	 0.713211382
	 0.885163082,	 0.426053117
END
BEGIN
	 0.206908539,	 69.5157253
	 0.220718459,	 75.3117648
	 0.234427288,	 81.1097763
	 0.237460097,	 82.3985219
	 0.238974649,	 83.0429381
	 0.240866101,	 83.8484998
	 0.242755624,	 84.6541084
	 0.245271988,	 85.7283276
	 0.247784923,	 86.8026338
	 0.250294431,	 87.877029
	 0.261546772,	 92.7129349
	 0.266042495,	 94.6476458
	 0.27500815,	 98.5179476
	 0.288392239,	 104.325744
END
BEGIN
	 0.206908539,	 69.5157253
	 0.220718459,	 75.3117648
	 0.234427288,	 81.1097763
	 0.237460097,	 82.3985219
	 0.238974649,	 83.0429381
	 0.240866101,	 83.8484998
	 0.242755624,	 84.6541084
	 0.245271988,	 85.7283276
	 0.247784923,	 86.8026338
	 0.250294431,	 87.877029
	 0.261546772,	 92.7129349
	 0.266042495,	 94.6476458
	 0.27500815,	 98.5179476
	 0.288392239,	 104.325744
END
BEGIN
	 53.569290029999998 ,	 0.030350894489999999 
	 53.573913570000002 ,	 0.03293150374 
	 53.578807249999997 ,	 0.0352355632 
	 53.579931449999997 ,	 0.03571581209 
	 53.580498550000002 ,	 0.035952007459999998 
	 53.581212120000004 ,	 0.036243688160000002 
	 53.581930900000003 ,	 0.036531514639999998 
	 53.582897359999997 ,	 0.036909475089999998 
	 53.583873089999997 ,	 0.03728102287 
	 53.584858070000003 ,	 0.037646392450000003 
	 53.589406830000001 ,	 0.039218801079999997 
	 53.591292729999999 ,	 0.039810647130000001 
	 53.595161660000002 ,	 0.040946071870000003 
	 53.601207670000001 ,	 0.042541941969999997 
END
BEGIN
	 53.569290029999998 ,	 0.030350894489999999 
	 53.573913570000002 ,	 0.03293150374 
	 53.578807249999997 ,	 0.0352355632 
	 53.579931449999997 ,	 0.03571581209 
	 53.580498550000002 ,	 0.035952007459999998 
	 53.581212120000004 ,	 0.036243688160000002 
	 53.581930900000003 ,	 0.036531514639999998 
	 53.582897359999997 ,	 0.036909475089999998 
	 53.583873089999997 ,	 0.03728102287 
	 53.584858070000003 ,	 0.037646392450000003 
	 53.589406830000001 ,	 0.039218801079999997 
	 53.591292729999999 ,	 0.039810647130000001 
	 53.595161660000002 ,	 0.040946071870000003 
	 53.601207670000001 ,	 0.042541941969999997 
END
BEGIN
	 50 ,	 0 
	 50 ,	 0 
	 50 ,	 0 
	 50 ,	 0 
	 50 ,	 0 
	 50 ,	 0 
	 50 ,	 0 
	 50 ,	 0 
	 50 ,	 0 
	 50 ,	 0 
	 50 ,	 0 
	 50 ,	 0 
	 50 ,	 0 
	 50 ,	 0 
END
BEGIN
	 50 ,	 0 
	 50 ,	 0 
	 50 ,	 0 
	 50 ,	 0 
	 50 ,	 0 
	 50 ,	 0 
	 50 ,	 0 
	 50 ,	 0 
	 50 ,	 0 
	 50 ,	 0 
	 50 ,	 0 
	 50 ,	 0 
	 50 ,	 0 
	 50 ,	 0 
END
