CITIFILE A.01.01
#Momentum: B.09.10.214 (*) 371.400 May 26 2011 
#Momentum Date and Time: Wed Jan 15 14:38:08 2014

NAME PortSet1/TwoP0_Dsolver_data/first_odd_mode_is_1/most_even_mode_is_1/PMLG4/LS0

CONSTANT NBR_OF_PORTS 2

VAR freq MAG 6

DATA GAMMA_1[1] RI
DATA Z0_1[1,1] RI
DATA LAMBADAI_1[1,1] RI
DATA Zcir_1[1,1] RI
DATA Ycir_1[1,1] RI

VAR_LIST_BEGIN
	 2000000000
	 2020000000
	 2040000000
	 2060000000
	 2658689943
	 3000000000
VAR_LIST_END

BEGIN
	 0.2069085392,	 69.51572528
	 0.2085715056,	 70.21115167
	 0.2102327196,	 70.9066056
	 0.2118922141,	 71.60208742
	 0.2609005648,	 92.43517033
	 0.2883922392,	 104.325744
END
BEGIN
	 53.569290029431947 ,	 0.030350894482748577 
	 53.56983084940665 ,	 0.030677123552127896 
	 53.570375361133294 ,	 0.030998681687317217 
	 53.57092362307985 ,	 0.031315682001096294 
	 53.589138705312322 ,	 0.039132415582760927 
	 53.601207672973217 ,	 0.042541941972910093 
END
BEGIN
	 0.2069085392,	 69.51572528
	 0.2085715056,	 70.21115167
	 0.2102327196,	 70.9066056
	 0.2118922141,	 71.60208742
	 0.2609005648,	 92.43517033
	 0.2883922392,	 104.325744
END
BEGIN
	 0.02382096031,	 7.866095039e-010
	 0.02394090019,	 7.866204722e-010
	 0.0240602702,	 7.866317409e-010
	 0.02417907934,	 7.866433077e-010
	 0.02751098923,	 7.871123542e-010
	 0.02925156435,	 7.874722659e-010
END
BEGIN
	 1.7320836687087184 ,	 3.8903355323906317e-008 
	 1.7495359428733444 ,	 3.8903110851417232e-008 
	 1.7669914808952638 ,	 3.8902875898713866e-008 
	 1.7844502949638164 ,	 3.8902650262381831e-008 
	 2.3086396402737424 ,	 3.889935577834072e-008 
	 2.6088885985074106 ,	 3.8899605267433594e-008 
END
CITIFILE A.01.01
NAME PortSet2/TwoP0_Dsolver_data/first_odd_mode_is_1/most_even_mode_is_1/PMLG4/LS0

VAR freq MAG 6

DATA GAMMA_1[1] RI
DATA Z0_1[1,1] RI
DATA LAMBADAI_1[1,1] RI
DATA Zcir_1[1,1] RI
DATA Ycir_1[1,1] RI

VAR_LIST_BEGIN
	 2000000000
	 2020000000
	 2040000000
	 2060000000
	 2658689943
	 3000000000
VAR_LIST_END

BEGIN
	 0.2069085392,	 69.51572528
	 0.2085715056,	 70.21115167
	 0.2102327196,	 70.9066056
	 0.2118922141,	 71.60208742
	 0.2609005648,	 92.43517033
	 0.2883922392,	 104.325744
END
BEGIN
	 53.569290029431947 ,	 0.030350894482748577 
	 53.56983084940665 ,	 0.030677123552127896 
	 53.570375361133294 ,	 0.030998681687317217 
	 53.57092362307985 ,	 0.031315682001096294 
	 53.589138705312322 ,	 0.039132415582760927 
	 53.601207672973217 ,	 0.042541941972910093 
END
BEGIN
	 0.2069085392,	 69.51572528
	 0.2085715056,	 70.21115167
	 0.2102327196,	 70.9066056
	 0.2118922141,	 71.60208742
	 0.2609005648,	 92.43517033
	 0.2883922392,	 104.325744
END
BEGIN
	 0.02382096031,	 7.866095039e-010
	 0.02394090019,	 7.866204722e-010
	 0.0240602702,	 7.866317409e-010
	 0.02417907934,	 7.866433077e-010
	 0.02751098923,	 7.871123542e-010
	 0.02925156435,	 7.874722659e-010
END
BEGIN
	 1.7320836687087184 ,	 3.8903355323906317e-008 
	 1.7495359428733444 ,	 3.8903110851417232e-008 
	 1.7669914808952638 ,	 3.8902875898713866e-008 
	 1.7844502949638164 ,	 3.8902650262381831e-008 
	 2.3086396402737424 ,	 3.889935577834072e-008 
	 2.6088885985074106 ,	 3.8899605267433594e-008 
END
