CITIFILE A.01.01
#Momentum: B.09.10.214 (*) 371.400 May 26 2011 
#Momentum Date and Time: Wed Jan 15 16:32:04 2014

NAME PortSet1/TwoP0_Dsolver_data/first_odd_mode_is_1/most_even_mode_is_1/PMLG4/LS0

CONSTANT NBR_OF_PORTS 2

VAR freq MAG 6

DATA GAMMA_1[1] RI
DATA Z0_1[1,1] RI
DATA LAMBADAI_1[1,1] RI
DATA Zcir_1[1,1] RI
DATA Ycir_1[1,1] RI

VAR_LIST_BEGIN
	 2000000000
	 2020000000
	 2040000000
	 2060000000
	 2658403206
	 3000000000
VAR_LIST_END

BEGIN
	 0.225356612,	 69.5420134
	 0.2272058318,	 70.23758822
	 0.2290533417,	 70.93318947
	 0.2308991748,	 71.62881752
	 0.2854800265,	 92.45583578
	 0.3162077195,	 104.3582877
END
BEGIN
	 53.474394620778504 ,	 0.044496392188719508 
	 53.475023663918485 ,	 0.04482357484900179 
	 53.475655521914149 ,	 0.045146097141696311 
	 53.476290271319066 ,	 0.045464071960637051 
	 53.49675359102779 ,	 0.053310864685242806 
	 53.50990009059737 ,	 0.05674524407091594 
END
BEGIN
	 0.225356612,	 69.5420134
	 0.2272058318,	 70.23758822
	 0.2290533417,	 70.93318947
	 0.2308991748,	 71.62881752
	 0.2854800265,	 92.45583578
	 0.3162077195,	 104.3582877
END
BEGIN
	 0.02377413795,	 7.855137945e-010
	 0.02389384621,	 7.855247765e-010
	 0.02401298579,	 7.855360585e-010
	 0.02413156569,	 7.855476383e-010
	 0.02745558895,	 7.860166485e-010
	 0.02919437336,	 7.86376867e-010
END
BEGIN
	 1.9953217202374556 ,	 3.8987077002356914e-008 
	 2.0154261928664519 ,	 3.898670326129793e-008 
	 2.0355344204887516 ,	 3.8986340337896019e-008 
	 2.0556464170928699 ,	 3.898598800279884e-008 
	 2.65920332758499 ,	 3.8979390214158662e-008 
	 3.0053669580957734 ,	 3.8978078469507952e-008 
END
CITIFILE A.01.01
NAME PortSet2/TwoP0_Dsolver_data/first_odd_mode_is_1/most_even_mode_is_1/PMLG4/LS0

VAR freq MAG 6

DATA GAMMA_1[1] RI
DATA Z0_1[1,1] RI
DATA LAMBADAI_1[1,1] RI
DATA Zcir_1[1,1] RI
DATA Ycir_1[1,1] RI

VAR_LIST_BEGIN
	 2000000000
	 2020000000
	 2040000000
	 2060000000
	 2658403206
	 3000000000
VAR_LIST_END

BEGIN
	 0.225356612,	 69.5420134
	 0.2272058318,	 70.23758822
	 0.2290533417,	 70.93318947
	 0.2308991748,	 71.62881752
	 0.2854800265,	 92.45583578
	 0.3162077195,	 104.3582877
END
BEGIN
	 53.474394620778504 ,	 0.044496392188719508 
	 53.475023663918485 ,	 0.04482357484900179 
	 53.475655521914149 ,	 0.045146097141696311 
	 53.476290271319066 ,	 0.045464071960637051 
	 53.49675359102779 ,	 0.053310864685242806 
	 53.50990009059737 ,	 0.05674524407091594 
END
BEGIN
	 0.225356612,	 69.5420134
	 0.2272058318,	 70.23758822
	 0.2290533417,	 70.93318947
	 0.2308991748,	 71.62881752
	 0.2854800265,	 92.45583578
	 0.3162077195,	 104.3582877
END
BEGIN
	 0.02377413795,	 7.855137945e-010
	 0.02389384621,	 7.855247765e-010
	 0.02401298579,	 7.855360585e-010
	 0.02413156569,	 7.855476383e-010
	 0.02745558895,	 7.860166485e-010
	 0.02919437336,	 7.86376867e-010
END
BEGIN
	 1.9953217202374556 ,	 3.8987077002356914e-008 
	 2.0154261928664519 ,	 3.898670326129793e-008 
	 2.0355344204887516 ,	 3.8986340337896019e-008 
	 2.0556464170928699 ,	 3.898598800279884e-008 
	 2.65920332758499 ,	 3.8979390214158662e-008 
	 3.0053669580957734 ,	 3.8978078469507952e-008 
END
