CITIFILE A.01.01
#Momentum: B.09.10.214 (*) 371.400 May 26 2011 
#Momentum Date and Time: Wed Jan 15 16:32:08 2014

NAME Momentum.SP

#  mode: MW    project: proj    reference: S_50

CONSTANT NBR_OF_PORTS 2

CONSTANT NORMALIZATION 1

VAR freq MAG 12

DATA S[1,1] RI
DATA S[1,2] RI
DATA S[2,1] RI
DATA S[2,2] RI
DATA S_50[1,1] RI
DATA S_50[1,2] RI
DATA S_50[2,1] RI
DATA S_50[2,2] RI
DATA S_Z0[1,1] RI
DATA S_Z0[1,2] RI
DATA S_Z0[2,1] RI
DATA S_Z0[2,2] RI
DATA GAMMA[1] RI
DATA GAMMA[2] RI
DATA Z0[1] RI
DATA Z0[2] RI
DATA PORTZ[1] RI
DATA PORTZ[2] RI

VAR_LIST_BEGIN
	 2000000000
	 2166666667
	 2250000000
	 2333333333
	 2388888889
	 2412037037
	 2435185185
	 2473765432
	 2505915638
	 2666666667
	 2833333334
	 3000000000
VAR_LIST_END

BEGIN
	-0.966550368,	 0.192106742
	-0.818662379,	 0.539449895
	-0.654496109,	 0.718670847
	-0.280420293,	 0.881635565
	 0.151002323,	 0.344554488
	-0.0734192725,	 0.312338449
	-0.0539022365,	 0.152379185
	-0.304880791,	 0.175984803
	-0.603551393,	-0.116768339
	-0.511941346,	 0.830995231
	-0.144212614,	 0.971369499
	 0.178308325,	 0.966726315
END
BEGIN
	-0.000471494038,	-0.000116967031
	-0.0025660547,	-0.00143991482
	-0.00946171869,	-0.00381821947
	-0.068229678,	 0.00493802661
	 0.0269980231,	 0.508205931
	 0.610538043,	 0.218215692
	 0.567361325,	-0.418607864
	-0.404057603,	-0.517396512
	-0.286603282,	 0.278257824
	 0.00724239593,	 0.0053979885
	 0.00236632987,	 0.000244648121
	 0.00140660483,	-0.000530218142
END
BEGIN
	-0.000471494038,	-0.000116967031
	-0.0025660547,	-0.00143991482
	-0.00946171869,	-0.00381821947
	-0.068229678,	 0.00493802661
	 0.0269980231,	 0.508205931
	 0.610538043,	 0.218215692
	 0.567361325,	-0.418607864
	-0.404057603,	-0.517396512
	-0.286603282,	 0.278257824
	 0.00724239593,	 0.0053979885
	 0.00236632987,	 0.000244648121
	 0.00140660483,	-0.000530218142
END
BEGIN
	-0.966550272,	 0.192107195
	-0.818662001,	 0.539450444
	-0.654495394,	 0.718671458
	-0.28041875,	 0.881635902
	 0.151003325,	 0.344552687
	-0.0734185748,	 0.312337817
	-0.0539006302,	 0.152377391
	-0.304882979,	 0.175982174
	-0.603552989,	-0.116766797
	-0.511941453,	 0.830995161
	-0.144212656,	 0.97136949
	 0.178308441,	 0.966726296
END
BEGIN
	-0.966550368,	 0.192106742
	-0.818662379,	 0.539449895
	-0.654496109,	 0.718670847
	-0.280420293,	 0.881635565
	 0.151002323,	 0.344554488
	-0.0734192725,	 0.312338449
	-0.0539022365,	 0.152379185
	-0.304880791,	 0.175984803
	-0.603551393,	-0.116768339
	-0.511941346,	 0.830995231
	-0.144212614,	 0.971369499
	 0.178308325,	 0.966726315
END
BEGIN
	-0.000471494038,	-0.000116967031
	-0.0025660547,	-0.00143991482
	-0.00946171869,	-0.00381821947
	-0.068229678,	 0.00493802661
	 0.0269980231,	 0.508205931
	 0.610538043,	 0.218215692
	 0.567361325,	-0.418607864
	-0.404057603,	-0.517396512
	-0.286603282,	 0.278257824
	 0.00724239593,	 0.0053979885
	 0.00236632987,	 0.000244648121
	 0.00140660483,	-0.000530218142
END
BEGIN
	-0.000471494038,	-0.000116967031
	-0.0025660547,	-0.00143991482
	-0.00946171869,	-0.00381821947
	-0.068229678,	 0.00493802661
	 0.0269980231,	 0.508205931
	 0.610538043,	 0.218215692
	 0.567361325,	-0.418607864
	-0.404057603,	-0.517396512
	-0.286603282,	 0.278257824
	 0.00724239593,	 0.0053979885
	 0.00236632987,	 0.000244648121
	 0.00140660483,	-0.000530218142
END
BEGIN
	-0.966550272,	 0.192107195
	-0.818662001,	 0.539450444
	-0.654495394,	 0.718671458
	-0.28041875,	 0.881635902
	 0.151003325,	 0.344552687
	-0.0734185748,	 0.312337817
	-0.0539006302,	 0.152377391
	-0.304882979,	 0.175982174
	-0.603552989,	-0.116766797
	-0.511941453,	 0.830995161
	-0.144212656,	 0.97136949
	 0.178308441,	 0.966726296
END
BEGIN
	-0.969517957,	 0.181609491
	-0.837635413,	 0.511567326
	-0.688522585,	 0.68794137
	-0.335341645,	 0.863960262
	 0.105307929,	 0.348469008
	-0.0993388403,	 0.320325737
	-0.0827229945,	 0.136434764
	-0.339779971,	 0.186601421
	-0.625023656,	-0.115819006
	-0.557324031,	 0.802341011
	-0.207404623,	 0.960102993
	 0.113996173,	 0.976247469
END
BEGIN
	-0.000440519935,	-0.000114373666
	-0.00237858056,	-0.00144214262
	-0.00886093448,	-0.00405687122
	-0.0669396838,	 0.000982018235
	 0.0156747464,	 0.512928778
	 0.602285174,	 0.229139179
	 0.568271779,	-0.411699314
	-0.389735733,	-0.510463621
	-0.272455456,	 0.269576409
	 0.00669039843,	 0.00556855072
	 0.00231560252,	 0.000390795411
	 0.00145086512,	-0.000441633258
END
BEGIN
	-0.000440519935,	-0.000114373666
	-0.00237858056,	-0.00144214262
	-0.00886093448,	-0.00405687122
	-0.0669396838,	 0.000982018235
	 0.0156747464,	 0.512928778
	 0.602285174,	 0.229139179
	 0.568271779,	-0.411699314
	-0.389735733,	-0.510463621
	-0.272455456,	 0.269576409
	 0.00669039843,	 0.00556855072
	 0.00231560252,	 0.000390795411
	 0.00145086512,	-0.000441633258
END
BEGIN
	-0.969517872,	 0.181609916
	-0.837635073,	 0.511567857
	-0.68852193,	 0.687941984
	-0.335340156,	 0.863960678
	 0.10530898,	 0.348467215
	-0.0993381342,	 0.320325123
	-0.0827213803,	 0.136432992
	-0.339782083,	 0.186598826
	-0.625025174,	-0.115817512
	-0.55732413,	 0.802340938
	-0.207404664,	 0.960102982
	 0.113996291,	 0.976247458
END
BEGIN
	 0.225356612,	 69.5420134
	 0.240719968,	 75.3392544
	 0.248364766,	 78.2385662
	 0.255985288,	 81.1383914
	 0.261052159,	 83.071914
	 0.263160175,	 83.8776242
	 0.26526632,	 84.6833804
	 0.268772408,	 86.0264117
	 0.271690181,	 87.1457068
	 0.286227026,	 92.7436329
	 0.30125441,	 98.5495885
	 0.316207719,	 104.358288
END
BEGIN
	 0.225356612,	 69.5420134
	 0.240719968,	 75.3392544
	 0.248364766,	 78.2385662
	 0.255985288,	 81.1383914
	 0.261052159,	 83.071914
	 0.263160175,	 83.8776242
	 0.26526632,	 84.6833804
	 0.268772408,	 86.0264117
	 0.271690181,	 87.1457068
	 0.286227026,	 92.7436329
	 0.30125441,	 98.5495885
	 0.316207719,	 104.358288
END
BEGIN
	 53.474394619999998 ,	 0.044496392189999998 
	 53.479729460000001 ,	 0.04708529308 
	 53.482479359999999 ,	 0.048272545710000003 
	 53.485284479999997 ,	 0.049398346400000001 
	 53.48718521 ,	 0.05011790746 
	 53.487984419999997 ,	 0.050410901330000001 
	 53.488787870000003 ,	 0.050700048849999999 
	 53.490136419999999 ,	 0.051173706149999998 
	 53.49126922 ,	 0.051560832190000003 
	 53.497059069999999 ,	 0.053400872410000001 
	 53.503353140000002 ,	 0.055138617940000002 
	 53.509900090000002 ,	 0.05674524408 
END
BEGIN
	 53.474394619999998 ,	 0.044496392189999998 
	 53.479729460000001 ,	 0.04708529308 
	 53.482479359999999 ,	 0.048272545710000003 
	 53.485284479999997 ,	 0.049398346400000001 
	 53.48718521 ,	 0.05011790746 
	 53.487984419999997 ,	 0.050410901330000001 
	 53.488787870000003 ,	 0.050700048849999999 
	 53.490136419999999 ,	 0.051173706149999998 
	 53.49126922 ,	 0.051560832190000003 
	 53.497059069999999 ,	 0.053400872410000001 
	 53.503353140000002 ,	 0.055138617940000002 
	 53.509900090000002 ,	 0.05674524408 
END
BEGIN
	 50 ,	 0 
	 50 ,	 0 
	 50 ,	 0 
	 50 ,	 0 
	 50 ,	 0 
	 50 ,	 0 
	 50 ,	 0 
	 50 ,	 0 
	 50 ,	 0 
	 50 ,	 0 
	 50 ,	 0 
	 50 ,	 0 
END
BEGIN
	 50 ,	 0 
	 50 ,	 0 
	 50 ,	 0 
	 50 ,	 0 
	 50 ,	 0 
	 50 ,	 0 
	 50 ,	 0 
	 50 ,	 0 
	 50 ,	 0 
	 50 ,	 0 
	 50 ,	 0 
	 50 ,	 0 
END
