CITIFILE A.01.01
#Momentum: B.09.20.456 (*) 372.600 Nov 12 2011 
#Momentum Date and Time: Thu Jan 16 10:05:35 2014

NAME Momentum.SP

#  mode: MW    project: proj    reference: S_50

CONSTANT NBR_OF_PORTS 2

CONSTANT NORMALIZATION 1

VAR freq MAG 12

DATA S[1,1] RI
DATA S[1,2] RI
DATA S[2,1] RI
DATA S[2,2] RI
DATA S_50[1,1] RI
DATA S_50[1,2] RI
DATA S_50[2,1] RI
DATA S_50[2,2] RI
DATA S_Z0[1,1] RI
DATA S_Z0[1,2] RI
DATA S_Z0[2,1] RI
DATA S_Z0[2,2] RI
DATA GAMMA[1] RI
DATA GAMMA[2] RI
DATA Z0[1] RI
DATA Z0[2] RI
DATA PORTZ[1] RI
DATA PORTZ[2] RI

VAR_LIST_BEGIN
	 2000000000
	 2166666667
	 2333333333
	 2342592592
	 2388888889
	 2416666667
	 2444444444
	 2481481481
	 2512345679
	 2666666667
	 2833333334
	 3000000000
VAR_LIST_END

BEGIN
	-0.624368415,	 0.761456326
	-0.278969537,	 0.940963836
	 0.239015,	 0.926815112
	 0.283234917,	 0.907787037
	 0.544256739,	 0.597159812
	 0.211589243,	 0.343020681
	 0.182414689,	 0.256214178
	-0.0357375351,	 0.471992566
	-0.369969956,	 0.648291279
	 0.404214662,	 0.889892489
	 0.725596524,	 0.660471172
	 0.909274148,	 0.369232994
END
BEGIN
	-0.000139149972,	 0.000458004033
	-0.000892022719,	 0.000815459073
	-0.0162067182,	 0.0135079404
	-0.0202063214,	 0.0187445936
	-0.0254591029,	 0.166986251
	 0.489781728,	 0.0973921955
	 0.1702409,	-0.585801822
	-0.552389794,	 0.0388365601
	 0.10533288,	 0.227167157
	 0.00441008059,	-0.00165122099
	 0.000892260524,	-0.00122171711
	 0.000168410831,	-0.00120168205
END
BEGIN
	-0.000139149972,	 0.000458004033
	-0.000892022719,	 0.000815459073
	-0.0162067182,	 0.0135079404
	-0.0202063214,	 0.0187445936
	-0.0254591029,	 0.166986251
	 0.489781728,	 0.0973921955
	 0.1702409,	-0.585801822
	-0.552389794,	 0.0388365601
	 0.10533288,	 0.227167157
	 0.00441008059,	-0.00165122099
	 0.000892260524,	-0.00122171711
	 0.000168410831,	-0.00120168205
END
BEGIN
	-0.613301293,	 0.770540288
	-0.266787923,	 0.944674413
	 0.247133785,	 0.925190571
	 0.29074229,	 0.906007869
	 0.547170741,	 0.597750433
	 0.219516662,	 0.346108425
	 0.185770449,	 0.259376984
	-0.0263746048,	 0.4737175
	-0.360735272,	 0.653776898
	 0.411941337,	 0.886599008
	 0.729086692,	 0.656900897
	 0.910351573,	 0.366969479
END
BEGIN
	-0.624368415,	 0.761456326
	-0.278969537,	 0.940963836
	 0.239015,	 0.926815112
	 0.283234917,	 0.907787037
	 0.544256739,	 0.597159812
	 0.211589243,	 0.343020681
	 0.182414689,	 0.256214178
	-0.0357375351,	 0.471992566
	-0.369969956,	 0.648291279
	 0.404214662,	 0.889892489
	 0.725596524,	 0.660471172
	 0.909274148,	 0.369232994
END
BEGIN
	-0.000139149972,	 0.000458004033
	-0.000892022719,	 0.000815459073
	-0.0162067182,	 0.0135079404
	-0.0202063214,	 0.0187445936
	-0.0254591029,	 0.166986251
	 0.489781728,	 0.0973921955
	 0.1702409,	-0.585801822
	-0.552389794,	 0.0388365601
	 0.10533288,	 0.227167157
	 0.00441008059,	-0.00165122099
	 0.000892260524,	-0.00122171711
	 0.000168410831,	-0.00120168205
END
BEGIN
	-0.000139149972,	 0.000458004033
	-0.000892022719,	 0.000815459073
	-0.0162067182,	 0.0135079404
	-0.0202063214,	 0.0187445936
	-0.0254591029,	 0.166986251
	 0.489781728,	 0.0973921955
	 0.1702409,	-0.585801822
	-0.552389794,	 0.0388365601
	 0.10533288,	 0.227167157
	 0.00441008059,	-0.00165122099
	 0.000892260524,	-0.00122171711
	 0.000168410831,	-0.00120168205
END
BEGIN
	-0.613301293,	 0.770540288
	-0.266787923,	 0.944674413
	 0.247133785,	 0.925190571
	 0.29074229,	 0.906007869
	 0.547170741,	 0.597750433
	 0.219516662,	 0.346108425
	 0.185770449,	 0.259376984
	-0.0263746048,	 0.4737175
	-0.360735272,	 0.653776898
	 0.411941337,	 0.886599008
	 0.729086692,	 0.656900897
	 0.910351573,	 0.366969479
END
BEGIN
	-0.661682796,	 0.730157246
	-0.337487814,	 0.922021837
	 0.178152031,	 0.939807501
	 0.224126515,	 0.923285166
	 0.506764232,	 0.618274766
	 0.18314549,	 0.351448093
	 0.137089909,	 0.252138548
	-0.0661095665,	 0.469834876
	-0.412932552,	 0.633608232
	 0.34833052,	 0.912608368
	 0.693507177,	 0.692786018
	 0.898185935,	 0.392502724
END
BEGIN
	-0.000154543859,	 0.000431456879
	-0.000920827093,	 0.000743051876
	-0.0172441711,	 0.0126449728
	-0.0216646816,	 0.0177696148
	-0.0333505321,	 0.171714674
	 0.493936183,	 0.109950815
	 0.181768438,	-0.589159461
	-0.551340877,	 0.0217290188
	 0.0931579329,	 0.225284467
	 0.00461439877,	-0.00141765262
	 0.000992796548,	-0.00123733573
	 0.000211683944,	-0.00127217167
END
BEGIN
	-0.000154543859,	 0.000431456879
	-0.000920827093,	 0.000743051876
	-0.0172441711,	 0.0126449728
	-0.0216646816,	 0.0177696148
	-0.0333505321,	 0.171714674
	 0.493936183,	 0.109950815
	 0.181768438,	-0.589159461
	-0.551340877,	 0.0217290188
	 0.0931579329,	 0.225284467
	 0.00461439877,	-0.00141765262
	 0.000992796548,	-0.00123733573
	 0.000211683944,	-0.00127217167
END
BEGIN
	-0.651525453,	 0.739363059
	-0.325808082,	 0.926382233
	 0.186467062,	 0.938674839
	 0.231854664,	 0.921944633
	 0.509754606,	 0.619008177
	 0.191105324,	 0.354758851
	 0.140428568,	 0.255390487
	-0.0568375437,	 0.471840113
	-0.404174365,	 0.639322376
	 0.356439864,	 0.909714803
	 0.6973331,	 0.689212095
	 0.899392367,	 0.390127152
END
BEGIN
	 0.225356577,	 69.5420589
	 0.240719942,	 75.3393038
	 0.255985271,	 81.1384446
	 0.256830499,	 81.4606812
	 0.261052146,	 83.0719686
	 0.263581542,	 84.038827
	 0.266108244,	 85.0057518
	 0.269472994,	 86.2950907
	 0.272273296,	 87.3696347
	 0.28622703,	 92.7436941
	 0.301254424,	 98.5496536
	 0.316207745,	 104.358357
END
BEGIN
	 0.225356577,	 69.5420589
	 0.240719942,	 75.3393038
	 0.255985271,	 81.1384446
	 0.256830499,	 81.4606812
	 0.261052146,	 83.0719686
	 0.263581542,	 84.038827
	 0.266108244,	 85.0057518
	 0.269472994,	 86.2950907
	 0.272273296,	 87.3696347
	 0.28622703,	 92.7436941
	 0.301254424,	 98.5496536
	 0.316207745,	 104.358357
END
BEGIN
	 53.47389682 ,	 0.044496298750000003 
	 53.479231609999999 ,	 0.047085166919999998 
	 53.484786579999998 ,	 0.049398191139999999 
	 53.485101659999998 ,	 0.049519769349999999 
	 53.4866873 ,	 0.05011774317 
	 53.487646839999996 ,	 0.050468866330000001 
	 53.488612510000003 ,	 0.05081448224 
	 53.489909599999997 ,	 0.051267055159999998 
	 53.490998810000001 ,	 0.051637271569999997 
	 53.496561079999999 ,	 0.053400666889999997 
	 53.502855099999998 ,	 0.055138390789999998 
	 53.509402000000001 ,	 0.056744996989999998 
END
BEGIN
	 53.47389682 ,	 0.044496298750000003 
	 53.479231609999999 ,	 0.047085166919999998 
	 53.484786579999998 ,	 0.049398191139999999 
	 53.485101659999998 ,	 0.049519769349999999 
	 53.4866873 ,	 0.05011774317 
	 53.487646839999996 ,	 0.050468866330000001 
	 53.488612510000003 ,	 0.05081448224 
	 53.489909599999997 ,	 0.051267055159999998 
	 53.490998810000001 ,	 0.051637271569999997 
	 53.496561079999999 ,	 0.053400666889999997 
	 53.502855099999998 ,	 0.055138390789999998 
	 53.509402000000001 ,	 0.056744996989999998 
END
BEGIN
	 50 ,	 0 
	 50 ,	 0 
	 50 ,	 0 
	 50 ,	 0 
	 50 ,	 0 
	 50 ,	 0 
	 50 ,	 0 
	 50 ,	 0 
	 50 ,	 0 
	 50 ,	 0 
	 50 ,	 0 
	 50 ,	 0 
END
BEGIN
	 50 ,	 0 
	 50 ,	 0 
	 50 ,	 0 
	 50 ,	 0 
	 50 ,	 0 
	 50 ,	 0 
	 50 ,	 0 
	 50 ,	 0 
	 50 ,	 0 
	 50 ,	 0 
	 50 ,	 0 
	 50 ,	 0 
END
