CITIFILE A.01.01
#Momentum: B.09.20.456 (*) 372.600 Nov 12 2011 
#Momentum Date and Time: Tue Jan 14 13:44:11 2014

NAME PortSet1/TwoP0_Dsolver_data/first_odd_mode_is_1/most_even_mode_is_1/PMLG4/LS0

CONSTANT NBR_OF_PORTS 2

VAR freq MAG 6

DATA GAMMA_1[1] RI
DATA Z0_1[1,1] RI
DATA LAMBADAI_1[1,1] RI
DATA Zcir_1[1,1] RI
DATA Ycir_1[1,1] RI

VAR_LIST_BEGIN
	 2000000000
	 2020000000
	 2040000000
	 2060000000
	 2658613808
	 3000000000
VAR_LIST_END

BEGIN
	 0.2068984061,	 69.5230509
	 0.2085614902,	 70.21855246
	 0.2102228232,	 70.9140816
	 0.2118824382,	 71.60963869
	 0.2608888168,	 92.44234457
	 0.2883894926,	 104.3368858
END
BEGIN
	 53.488999100683792 ,	 0.030355292161671307 
	 53.489539200811812 ,	 0.030680854332433387 
	 53.490082986390377 ,	 0.031001755314420936 
	 53.490630516937244 ,	 0.031318107978379625 
	 53.508818800265608 ,	 0.039118118341087388 
	 53.520874689164089 ,	 0.042521598095861306 
END
BEGIN
	 0.2068984061,	 69.5230509
	 0.2085614902,	 70.21855246
	 0.2102228232,	 70.9140816
	 0.2118824382,	 71.60963869
	 0.2608888168,	 92.44234457
	 0.2883894926,	 104.3368858
END
BEGIN
	 0.02377402232,	 7.85513286e-010
	 0.02389372779,	 7.855242615e-010
	 0.02401286454,	 7.85535537e-010
	 0.02413144156,	 7.855471102e-010
	 0.02745645899,	 7.860161322e-010
	 0.02919405429,	 7.863760448e-010
END
BEGIN
	 1.7350982139757456 ,	 3.8965857805649482e-008 
	 1.7525810423591102 ,	 3.8965613921372879e-008 
	 1.7700671443273743 ,	 3.8965379575159753e-008 
	 1.7875565320771518 ,	 3.8965154562777321e-008 
	 2.3125987146427129 ,	 3.8961885267564958e-008 
	 2.6134430975095606 ,	 3.8962152746393598e-008 
END
CITIFILE A.01.01
NAME PortSet2/TwoP0_Dsolver_data/first_odd_mode_is_1/most_even_mode_is_1/PMLG4/LS0

VAR freq MAG 6

DATA GAMMA_2[1] RI
DATA Z0_2[1,1] RI
DATA LAMBADAI_2[1,1] RI
DATA Zcir_2[1,1] RI
DATA Ycir_2[1,1] RI

VAR_LIST_BEGIN
	 2000000000
	 2020000000
	 2040000000
	 2060000000
	 2658613306
	 3000000000
VAR_LIST_END

BEGIN
	 0.2068983438,	 69.52309637
	 0.2085614286,	 70.2185984
	 0.2102227624,	 70.91412801
	 0.2118823781,	 71.60968556
	 0.2608887422,	 92.44238807
	 0.2883894762,	 104.336955
END
BEGIN
	 53.488501173740431 ,	 0.030355318768959978 
	 53.489041269401589 ,	 0.030680876806891865 
	 53.489585050474396 ,	 0.031001773716445146 
	 53.490132576482992 ,	 0.031318122366860532 
	 53.508320692584611 ,	 0.039118028775531465 
	 53.520376501339811 ,	 0.042521471376807944 
END
BEGIN
	 0.2068983438,	 69.52309637
	 0.2085614286,	 70.2185984
	 0.2102227624,	 70.91412801
	 0.2118823781,	 71.60968556
	 0.2608887422,	 92.44238807
	 0.2883894762,	 104.336955
END
BEGIN
	 0.02377373143,	 7.855064874e-010
	 0.02389343545,	 7.855174629e-010
	 0.02401257076,	 7.855287385e-010
	 0.02413114634,	 7.855403117e-010
	 0.0274561209,	 7.860093336e-010
	 0.02919369789,	 7.863692462e-010
END
BEGIN
	 1.7351169391819168 ,	 3.8966246023622993e-008 
	 1.7525999573575937 ,	 3.8966002143006823e-008 
	 1.7700862491786276 ,	 3.8965767800567547e-008 
	 1.7875758268416615 ,	 3.8965542792067457e-008 
	 2.3126232805796541 ,	 3.8962273653510065e-008 
	 2.613471388401976 ,	 3.8962541244171076e-008 
END
