CITIFILE A.01.01
#Momentum: B.09.10.214 (*) 371.400 May 26 2011 
#Momentum Date and Time: Wed Jan 15 14:16:36 2014

NAME PortSet1/TwoP0_Dsolver_data/first_odd_mode_is_1/most_even_mode_is_1/PMLG4/LS0

CONSTANT NBR_OF_PORTS 2

VAR freq MAG 6

DATA GAMMA_1[1] RI
DATA Z0_1[1,1] RI
DATA LAMBADAI_1[1,1] RI
DATA Zcir_1[1,1] RI
DATA Ycir_1[1,1] RI

VAR_LIST_BEGIN
	 2000000000
	 2020000000
	 2040000000
	 2060000000
	 2330079904
	 3000000000
VAR_LIST_END

BEGIN
	 0.2068987835,	 69.52305189
	 0.2085614902,	 70.21855246
	 0.2102228232,	 70.9140816
	 0.2118824382,	 71.60963869
	 0.2341399177,	 81.00530954
	 0.2883895136,	 104.3368858
END
BEGIN
	 53.488999858585778 ,	 0.030355004536472295 
	 53.489539200811812 ,	 0.030680854332433387 
	 53.490082986390448 ,	 0.031001755314362976 
	 53.490630516937244 ,	 0.031318107978377294 
	 53.498389873746717 ,	 0.035195178430215066 
	 53.520874700794202 ,	 0.042521587353276408 
END
BEGIN
	 0.2068987835,	 69.52305189
	 0.2085614902,	 70.21855246
	 0.2102228232,	 70.9140816
	 0.2118824382,	 71.60963869
	 0.2341399177,	 81.00530954
	 0.2883895136,	 104.3368858
END
BEGIN
	 0.02377412931,	 7.855133083e-010
	 0.02389372779,	 7.855242615e-010
	 0.02401286454,	 7.85535537e-010
	 0.02413144156,	 7.855471102e-010
	 0.02568179564,	 7.857306825e-010
	 0.02919406026,	 7.863760452e-010
END
BEGIN
	 1.735098214147796 ,	 3.8965857810778028e-008 
	 1.7525810423591102 ,	 3.8965613921372879e-008 
	 1.7700671443273759 ,	 3.8965379575159747e-008 
	 1.7875565320771523 ,	 3.8965154562777321e-008 
	 2.0240609914324503 ,	 3.896293877006433e-008 
	 2.6134430975179042 ,	 3.8962152746559835e-008 
END
CITIFILE A.01.01
NAME PortSet2/TwoP0_Dsolver_data/first_odd_mode_is_1/most_even_mode_is_1/PMLG4/LS0

VAR freq MAG 6

DATA GAMMA_2[1] RI
DATA Z0_2[1,1] RI
DATA LAMBADAI_2[1,1] RI
DATA Zcir_2[1,1] RI
DATA Ycir_2[1,1] RI

VAR_LIST_BEGIN
	 2000000000
	 2020000000
	 2040000000
	 2060000000
	 2658610226
	 3000000000
VAR_LIST_END

BEGIN
	 0.2068983438,	 69.52309637
	 0.2085614286,	 70.2185984
	 0.2102227624,	 70.91412801
	 0.2118823781,	 71.60968556
	 0.2608884928,	 92.44228081
	 0.2883894762,	 104.336955
END
BEGIN
	 53.488501173740445 ,	 0.030355318768959826 
	 53.489041269409491 ,	 0.030680876806791272 
	 53.48958505047441 ,	 0.031001773716445146 
	 53.490132576482992 ,	 0.031318122366860469 
	 53.50832058954601 ,	 0.039117995300044305 
	 53.520376501339882 ,	 0.042521471376751011 
END
BEGIN
	 0.2068983438,	 69.52309637
	 0.2085614286,	 70.2185984
	 0.2102227624,	 70.91412801
	 0.2118823781,	 71.60968556
	 0.2608884928,	 92.44228081
	 0.2883894762,	 104.336955
END
BEGIN
	 0.02377373143,	 7.855064874e-010
	 0.02389343546,	 7.855174629e-010
	 0.02401257076,	 7.855287385e-010
	 0.02413114634,	 7.855403117e-010
	 0.02745610476,	 7.860093306e-010
	 0.02919369789,	 7.863692462e-010
END
BEGIN
	 1.7351169391819148 ,	 3.896624602362298e-008 
	 1.752599957357597 ,	 3.8966002143006895e-008 
	 1.7700862491786267 ,	 3.896576780056756e-008 
	 1.7875758268416613 ,	 3.8965542792067457e-008 
	 2.3126205712844032 ,	 3.8962273656600783e-008 
	 2.6134713884019742 ,	 3.896254124417107e-008 
END
