CITIFILE A.01.01
#Momentum: B.09.10.214 (*) 371.400 May 26 2011 
#Momentum Date and Time: Wed Jan 15 14:16:40 2014

NAME Momentum.SP

#  mode: MW    project: proj    reference: S_50

CONSTANT NBR_OF_PORTS 2

CONSTANT NORMALIZATION 1

VAR freq MAG 13

DATA S[1,1] RI
DATA S[1,2] RI
DATA S[2,1] RI
DATA S[2,2] RI
DATA S_50[1,1] RI
DATA S_50[1,2] RI
DATA S_50[2,1] RI
DATA S_50[2,2] RI
DATA S_Z0[1,1] RI
DATA S_Z0[1,2] RI
DATA S_Z0[2,1] RI
DATA S_Z0[2,2] RI
DATA GAMMA[1] RI
DATA GAMMA[2] RI
DATA Z0[1] RI
DATA Z0[2] RI
DATA PORTZ[1] RI
DATA PORTZ[2] RI

VAR_LIST_BEGIN
	 2000000000
	 2166666667
	 2333333333
	 2361111111
	 2388888889
	 2412037037
	 2435185185
	 2466049383
	 2496913580
	 2527777778
	 2666666667
	 2833333334
	 3000000000
VAR_LIST_END

BEGIN
	-0.536513389,	 0.827048406
	-0.167527625,	 0.967270673
	 0.444127293,	 0.816470005
	 0.59936793,	 0.552121829
	 0.239173683,	 0.213112471
	 0.221683503,	 0.361753377
	 0.0576863857,	 0.17338718
	-0.132859828,	 0.518128702
	-0.0615715908,	 0.310644523
	-0.315741345,	 0.793370135
	 0.377927878,	 0.902565858
	 0.70952445,	 0.680125804
	 0.899801213,	 0.396286624
END
BEGIN
	-0.000544652648,	 0.000337220872
	-0.00297783838,	 0.00102523444
	-0.0483723669,	 0.0572107645
	-0.0469840403,	 0.206102869
	 0.492686165,	 0.284313713
	 0.54082655,	-0.354133333
	 0.0221551859,	-0.716075259
	-0.574332827,	-0.223737178
	-0.359782923,	 0.491130373
	 0.152168702,	 0.140005076
	 0.00913936075,	-0.00299145681
	 0.00171195197,	-0.0019619118
	 0.000370416211,	-0.00161913677
END
BEGIN
	-0.000544652648,	 0.000337220872
	-0.00297783838,	 0.00102523444
	-0.0483723669,	 0.0572107645
	-0.0469840403,	 0.206102869
	 0.492686165,	 0.284313713
	 0.54082655,	-0.354133333
	 0.0221551859,	-0.716075259
	-0.574332827,	-0.223737178
	-0.359782923,	 0.491130373
	 0.152168702,	 0.140005076
	 0.00913936075,	-0.00299145681
	 0.00171195197,	-0.0019619118
	 0.000370416211,	-0.00161913677
END
BEGIN
	-0.536494676,	 0.827041193
	-0.167515108,	 0.967257797
	 0.444131842,	 0.816477112
	 0.599394779,	 0.552153407
	 0.239275499,	 0.21308331
	 0.221711775,	 0.361673894
	 0.0576815675,	 0.173344208
	-0.132835663,	 0.518084065
	-0.0616119806,	 0.31056035
	-0.315773752,	 0.793373509
	 0.377930254,	 0.902550277
	 0.709521989,	 0.680105739
	 0.899793082,	 0.396265864
END
BEGIN
	-0.536513389,	 0.827048406
	-0.167527625,	 0.967270673
	 0.444127293,	 0.816470005
	 0.59936793,	 0.552121829
	 0.239173683,	 0.213112471
	 0.221683503,	 0.361753377
	 0.0576863857,	 0.17338718
	-0.132859828,	 0.518128702
	-0.0615715908,	 0.310644523
	-0.315741345,	 0.793370135
	 0.377927878,	 0.902565858
	 0.70952445,	 0.680125804
	 0.899801213,	 0.396286624
END
BEGIN
	-0.000544652648,	 0.000337220872
	-0.00297783838,	 0.00102523444
	-0.0483723669,	 0.0572107645
	-0.0469840403,	 0.206102869
	 0.492686165,	 0.284313713
	 0.54082655,	-0.354133333
	 0.0221551859,	-0.716075259
	-0.574332827,	-0.223737178
	-0.359782923,	 0.491130373
	 0.152168702,	 0.140005076
	 0.00913936075,	-0.00299145681
	 0.00171195197,	-0.0019619118
	 0.000370416211,	-0.00161913677
END
BEGIN
	-0.000544652648,	 0.000337220872
	-0.00297783838,	 0.00102523444
	-0.0483723669,	 0.0572107645
	-0.0469840403,	 0.206102869
	 0.492686165,	 0.284313713
	 0.54082655,	-0.354133333
	 0.0221551859,	-0.716075259
	-0.574332827,	-0.223737178
	-0.359782923,	 0.491130373
	 0.152168702,	 0.140005076
	 0.00913936075,	-0.00299145681
	 0.00171195197,	-0.0019619118
	 0.000370416211,	-0.00161913677
END
BEGIN
	-0.536494676,	 0.827041193
	-0.167515108,	 0.967257797
	 0.444131842,	 0.816477112
	 0.599394779,	 0.552153407
	 0.239275499,	 0.21308331
	 0.221711775,	 0.361673894
	 0.0576815675,	 0.173344208
	-0.132835663,	 0.518084065
	-0.0616119806,	 0.31056035
	-0.315773752,	 0.793373509
	 0.377930254,	 0.902550277
	 0.709521989,	 0.680105739
	 0.899793082,	 0.396265864
END
BEGIN
	-0.581193008,	 0.796947272
	-0.230414502,	 0.954512371
	 0.393365929,	 0.839618494
	 0.56508367,	 0.573495305
	 0.210867532,	 0.226406527
	 0.191333349,	 0.353992425
	 0.00563397997,	 0.172629313
	-0.165713172,	 0.522267239
	-0.101496871,	 0.297343385
	-0.365769921,	 0.777079776
	 0.320308618,	 0.924048561
	 0.675553985,	 0.712743594
	 0.887304819,	 0.421068051
END
BEGIN
	-0.000540958918,	 0.000295892965
	-0.00299503537,	 0.000820606227
	-0.0529271948,	 0.0559662835
	-0.0569139567,	 0.212303031
	 0.495985233,	 0.295769854
	 0.556640515,	-0.34595198
	 0.0301129433,	-0.717235643
	-0.560397303,	-0.240823271
	-0.367322975,	 0.481134443
	 0.141269293,	 0.144302299
	 0.00952239409,	-0.00248079507
	 0.0018881738,	-0.00196866282
	 0.000441019421,	-0.00170850777
END
BEGIN
	-0.000540958918,	 0.000295892965
	-0.00299503537,	 0.000820606227
	-0.0529271948,	 0.0559662835
	-0.0569139567,	 0.212303031
	 0.495985233,	 0.295769854
	 0.556640515,	-0.34595198
	 0.0301129433,	-0.717235643
	-0.560397303,	-0.240823271
	-0.367322975,	 0.481134443
	 0.141269293,	 0.144302299
	 0.00952239409,	-0.00248079507
	 0.0018881738,	-0.00196866282
	 0.000441019421,	-0.00170850777
END
BEGIN
	-0.581168593,	 0.796945632
	-0.230392802,	 0.95450252
	 0.393377106,	 0.83962307
	 0.565114665,	 0.573526141
	 0.210976547,	 0.226379279
	 0.191369708,	 0.353910165
	 0.00563196805,	 0.172585942
	-0.165680907,	 0.522225928
	-0.101530836,	 0.297257559
	-0.36579483,	 0.777084269
	 0.320320691,	 0.924029871
	 0.675557464,	 0.712717838
	 0.88729861,	 0.421042289
END
BEGIN
	 0.206898783,	 69.5230519
	 0.220707157,	 75.3197443
	 0.234406678,	 81.1185223
	 0.23668296,	 82.0851654
	 0.238956889,	 83.0518676
	 0.240850034,	 83.8574989
	 0.242741545,	 84.6631729
	 0.245261021,	 85.7374727
	 0.247777596,	 86.8118515
	 0.25029127,	 87.8863111
	 0.261566935,	 92.7224264
	 0.275020356,	 98.5281978
	 0.288389514,	 104.336886
END
BEGIN
	 0.206898344,	 69.5230964
	 0.22070929,	 75.3197676
	 0.234419233,	 81.118414
	 0.236694498,	 82.0850686
	 0.238966985,	 83.0517882
	 0.240858603,	 83.8574384
	 0.242748293,	 84.6631357
	 0.245264882,	 85.7374733
	 0.247778045,	 86.8118979
	 0.250287785,	 87.8864117
	 0.261541222,	 92.7228523
	 0.275003955,	 98.52851
	 0.288389476,	 104.336955
END
BEGIN
	 53.48899986 ,	 0.03035500453 
	 53.493613750000002 ,	 0.032932079519999997 
	 53.498487930000003 ,	 0.035237724089999999 
	 53.499329529999997 ,	 0.03559746213 
	 53.500179070000002 ,	 0.035951059119999997 
	 53.500893079999997 ,	 0.036241185199999998 
	 53.501612610000002 ,	 0.036527311180000001 
	 53.502580559999998 ,	 0.036902784750000001 
	 53.503558300000002 ,	 0.037271603489999999 
	 53.504545829999998 ,	 0.03763401106 
	 53.509110870000001 ,	 0.0391914716 
	 53.514850359999997 ,	 0.040920740529999999 
	 53.5208747 ,	 0.042521587360000002 
END
BEGIN
	 53.488501169999999 ,	 0.030355318780000001 
	 53.493118500000001 ,	 0.03293062611 
	 53.498005620000001 ,	 0.035229965740000001 
	 53.498846389999997 ,	 0.035590407630000001 
	 53.499694650000002 ,	 0.035944945270000001 
	 53.500407260000003 ,	 0.03623603006 
	 53.501125080000001 ,	 0.036523268720000002 
	 53.502090250000002 ,	 0.036900457659999997 
	 53.503064670000001 ,	 0.037271247399999999 
	 53.504048330000003 ,	 0.037635871940000003 
	 53.508591029999998 ,	 0.03920506847 
	 53.514338340000002 ,	 0.040928831839999999 
	 53.520376499999998 ,	 0.042521471370000001 
END
BEGIN
	 50 ,	 0 
	 50 ,	 0 
	 50 ,	 0 
	 50 ,	 0 
	 50 ,	 0 
	 50 ,	 0 
	 50 ,	 0 
	 50 ,	 0 
	 50 ,	 0 
	 50 ,	 0 
	 50 ,	 0 
	 50 ,	 0 
	 50 ,	 0 
END
BEGIN
	 50 ,	 0 
	 50 ,	 0 
	 50 ,	 0 
	 50 ,	 0 
	 50 ,	 0 
	 50 ,	 0 
	 50 ,	 0 
	 50 ,	 0 
	 50 ,	 0 
	 50 ,	 0 
	 50 ,	 0 
	 50 ,	 0 
	 50 ,	 0 
END
