CITIFILE A.01.01
#Momentum: B.11.20.082 (*) 2014.01 Feb 25 2014 
#Momentum Date and Time: Fri Jan 16 14:55:31 2015

NAME Momentum.SP

#  mode: MW    project: proj    reference: S_50

CONSTANT NBR_OF_PORTS 4

CONSTANT NORMALIZATION 1

VAR freq MAG 6

DATA S[1,1] RI
DATA S[1,2] RI
DATA S[1,3] RI
DATA S[1,4] RI
DATA S[2,1] RI
DATA S[2,2] RI
DATA S[2,3] RI
DATA S[2,4] RI
DATA S[3,1] RI
DATA S[3,2] RI
DATA S[3,3] RI
DATA S[3,4] RI
DATA S[4,1] RI
DATA S[4,2] RI
DATA S[4,3] RI
DATA S[4,4] RI
DATA PORTZ[1] RI
DATA PORTZ[2] RI
DATA PORTZ[3] RI
DATA PORTZ[4] RI

VAR_LIST_BEGIN
	 0
	 3333333333
	 5000000000
	 6666666667
	 8333333334
	 1e+010
VAR_LIST_END

BEGIN
	 6.86915451e-016,	 0
	-0.329733165,	-0.141412568
	-0.0191513525,	 0.00230644074
	-0.256607428,	 0.336574459
	 0.444203373,	 0.014038023
	-0.0594265282,	-0.0520035872
END
BEGIN
	 0.99999999999999967 ,	 -0 
	-0.325746557,	 0.821594468
	 0.923175394,	-0.231888828
	-0.721667694,	-0.521881665
	-0.0566621539,	 0.866564054
	 0.767064205,	-0.580488589
END
BEGIN
	 2.35735586e-020,	 0
	-0.248020062,	-0.106363817
	 0.07193282,	 0.286377318
	 0.0889241399,	-0.0590881184
	 0.0484511448,	-0.06257494
	-0.127291303,	-0.162163057
END
BEGIN
	-2.28069675e-020,	-0
	 0.0190734155,	-0.10797439
	 0.0165583514,	 0.0654261718
	-0.0762747764,	 0.0274869513
	 0.118032702,	-0.0132395527
	-0.0612813038,	-0.0583205733
END
BEGIN
	 0.99999999999999967 ,	 -0 
	-0.32574661,	 0.821594432
	 0.923175478,	-0.231888842
	-0.721667693,	-0.521881665
	-0.0566621536,	 0.866563904
	 0.767064142,	-0.580488564
END
BEGIN
	-2.94392336e-016,	 0
	-0.329765882,	-0.141358482
	-0.020148984,	 0.00256347431
	-0.256614236,	 0.336560436
	 0.444180631,	 0.0140018762
	-0.059295003,	-0.0521572192
END
BEGIN
	-2.36540004e-020,	-0
	 0.0190549011,	-0.107962116
	 0.0166004313,	 0.0654075979
	-0.0763157184,	 0.0274777793
	 0.118020552,	-0.0131875533
	-0.0611536645,	-0.058354889
END
BEGIN
	 2.44202008e-020,	 0
	-0.248041568,	-0.106309386
	 0.0719532528,	 0.286303964
	 0.0888468173,	-0.0591199042
	 0.0484550853,	-0.0626045029
	-0.127300214,	-0.162121471
END
BEGIN
	 2.44205916e-020,	 0
	-0.248020062,	-0.106363817
	 0.07193282,	 0.286377318
	 0.0889241399,	-0.0590881184
	 0.0484511448,	-0.06257494
	-0.127291303,	-0.162163057
END
BEGIN
	-2.45010334e-020,	-0
	 0.0190549113,	-0.107962107
	 0.0166003334,	 0.0654075167
	-0.0763157184,	 0.0274777795
	 0.118020579,	-0.0131875419
	-0.0611536258,	-0.0583549483
END
BEGIN
	 9.81307787e-016,	 0
	-0.329756067,	-0.141431844
	-0.0190592344,	 0.00253900094
	-0.256526041,	 0.336438521
	 0.444308899,	 0.0140563851
	-0.0594517298,	-0.0523001485
END
BEGIN
	 0.99999999999999911 ,	 -0 
	-0.325840169,	 0.821543122
	 0.92324274,	-0.231614336
	-0.721582267,	-0.522125172
	-0.0570807388,	 0.866490969
	 0.767512541,	-0.579919918
END
BEGIN
	-2.45010334e-020,	-0
	 0.0190734053,	-0.107974399
	 0.0165584494,	 0.065426253
	-0.0762747764,	 0.0274869511
	 0.118032674,	-0.0132395641
	-0.0612813425,	-0.058320514
END
BEGIN
	 2.35731679e-020,	 0
	-0.248041568,	-0.106309386
	 0.0719532527,	 0.286303964
	 0.0888468173,	-0.0591199042
	 0.0484550853,	-0.0626045029
	-0.127300214,	-0.162121471
END
BEGIN
	 0.99999999999999967 ,	 -0 
	-0.325840221,	 0.821543086
	 0.923242824,	-0.23161435
	-0.721582265,	-0.522125171
	-0.0570807384,	 0.86649082
	 0.767512478,	-0.579919893
END
BEGIN
	 9.81307787e-017,	 0
	-0.329758209,	-0.141440228
	-0.020118445,	 0.00276989549
	-0.256774372,	 0.336358694
	 0.444295367,	 0.0144061807
	-0.0594577028,	-0.0523392321
END
BEGIN
	 50 ,	 0 
	 50 ,	 0 
	 50 ,	 0 
	 50 ,	 0 
	 50 ,	 0 
	 50 ,	 0 
END
BEGIN
	 50 ,	 0 
	 50 ,	 0 
	 50 ,	 0 
	 50 ,	 0 
	 50 ,	 0 
	 50 ,	 0 
END
BEGIN
	 50 ,	 0 
	 50 ,	 0 
	 50 ,	 0 
	 50 ,	 0 
	 50 ,	 0 
	 50 ,	 0 
END
BEGIN
	 50 ,	 0 
	 50 ,	 0 
	 50 ,	 0 
	 50 ,	 0 
	 50 ,	 0 
	 50 ,	 0 
END
