CITIFILE A.01.01
#Momentum: B.09.20.456 (*) 372.600 Nov 12 2011 
#Momentum Date and Time: Thu Jan 16 10:07:43 2014

NAME Momentum.SP

#  mode: MW    project: proj    reference: S_50

CONSTANT NBR_OF_PORTS 2

CONSTANT NORMALIZATION 1

VAR freq MAG 12

DATA S[1,1] RI
DATA S[1,2] RI
DATA S[2,1] RI
DATA S[2,2] RI
DATA S_50[1,1] RI
DATA S_50[1,2] RI
DATA S_50[2,1] RI
DATA S_50[2,2] RI
DATA S_Z0[1,1] RI
DATA S_Z0[1,2] RI
DATA S_Z0[2,1] RI
DATA S_Z0[2,2] RI
DATA GAMMA[1] RI
DATA GAMMA[2] RI
DATA Z0[1] RI
DATA Z0[2] RI
DATA PORTZ[1] RI
DATA PORTZ[2] RI

VAR_LIST_BEGIN
	 2000000000
	 2166666667
	 2250000000
	 2333333333
	 2388888889
	 2412037037
	 2435185185
	 2473765432
	 2505915638
	 2666666667
	 2833333334
	 3000000000
VAR_LIST_END

BEGIN
	-0.966551149,	 0.192102865
	-0.818664516,	 0.539446543
	-0.654498539,	 0.718668405
	-0.280422296,	 0.881634749
	 0.151020269,	 0.344557716
	-0.0734135368,	 0.312320216
	-0.0539073634,	 0.152359621
	-0.304905267,	 0.175990893
	-0.603537068,	-0.116770823
	-0.511945564,	 0.830992511
	-0.144215974,	 0.971368919
	 0.178306547,	 0.966726536
END
BEGIN
	-0.000471502749,	-0.000116957672
	-0.00256603367,	-0.00143988355
	-0.00946154707,	-0.00381816839
	-0.0682281151,	 0.00493726337
	 0.0269767599,	 0.508197475
	 0.610532292,	 0.21823464
	 0.56736905,	-0.418596549
	-0.404037905,	-0.517403708
	-0.286616931,	 0.278256615
	 0.00724236379,	 0.00539803661
	 0.00236633119,	 0.000244666704
	 0.00140661704,	-0.000530208619
END
BEGIN
	-0.000471502749,	-0.000116957672
	-0.00256603367,	-0.00143988355
	-0.00946154707,	-0.00381816839
	-0.0682281151,	 0.00493726337
	 0.0269767599,	 0.508197475
	 0.610532292,	 0.21823464
	 0.56736905,	-0.418596549
	-0.404037905,	-0.517403708
	-0.286616931,	 0.278256615
	 0.00724236379,	 0.00539803661
	 0.00236633119,	 0.000244666704
	 0.00140661704,	-0.000530208619
END
BEGIN
	-0.966551116,	 0.192103777
	-0.818666555,	 0.53944389
	-0.654503712,	 0.718664235
	-0.280434915,	 0.881631954
	 0.151012166,	 0.344568281
	-0.0734221179,	 0.312322622
	-0.0539200172,	 0.152370016
	-0.304904828,	 0.17599795
	-0.603541372,	-0.116761914
	-0.51194755,	 0.830991655
	-0.144222462,	 0.97136813
	 0.178297679,	 0.966728295
END
BEGIN
	-0.966551149,	 0.192102865
	-0.818664516,	 0.539446543
	-0.654498539,	 0.718668405
	-0.280422296,	 0.881634749
	 0.151020269,	 0.344557716
	-0.0734135368,	 0.312320216
	-0.0539073634,	 0.152359621
	-0.304905267,	 0.175990893
	-0.603537068,	-0.116770823
	-0.511945564,	 0.830992511
	-0.144215974,	 0.971368919
	 0.178306547,	 0.966726536
END
BEGIN
	-0.000471502749,	-0.000116957672
	-0.00256603367,	-0.00143988355
	-0.00946154707,	-0.00381816839
	-0.0682281151,	 0.00493726337
	 0.0269767599,	 0.508197475
	 0.610532292,	 0.21823464
	 0.56736905,	-0.418596549
	-0.404037905,	-0.517403708
	-0.286616931,	 0.278256615
	 0.00724236379,	 0.00539803661
	 0.00236633119,	 0.000244666704
	 0.00140661704,	-0.000530208619
END
BEGIN
	-0.000471502749,	-0.000116957672
	-0.00256603367,	-0.00143988355
	-0.00946154707,	-0.00381816839
	-0.0682281151,	 0.00493726337
	 0.0269767599,	 0.508197475
	 0.610532292,	 0.21823464
	 0.56736905,	-0.418596549
	-0.404037905,	-0.517403708
	-0.286616931,	 0.278256615
	 0.00724236379,	 0.00539803661
	 0.00236633119,	 0.000244666704
	 0.00140661704,	-0.000530208619
END
BEGIN
	-0.966551116,	 0.192103777
	-0.818666555,	 0.53944389
	-0.654503712,	 0.718664235
	-0.280434915,	 0.881631954
	 0.151012166,	 0.344568281
	-0.0734221179,	 0.312322622
	-0.0539200172,	 0.152370016
	-0.304904828,	 0.17599795
	-0.603541372,	-0.116761914
	-0.51194755,	 0.830991655
	-0.144222462,	 0.97136813
	 0.178297679,	 0.966728295
END
BEGIN
	-0.969518217,	 0.181607486
	-0.83763472,	 0.511568076
	-0.68852015,	 0.68794334
	-0.335335982,	 0.863962051
	 0.10533262,	 0.348471507
	-0.0993296619,	 0.320307399
	-0.0827233477,	 0.136417768
	-0.339799945,	 0.186605329
	-0.625006773,	-0.115821737
	-0.557321749,	 0.802342334
	-0.207399157,	 0.960104062
	 0.114003394,	 0.97624654
END
BEGIN
	-0.000440532366,	-0.000114365165
	-0.00237858708,	-0.00144211125
	-0.00886085405,	-0.00405677996
	-0.0669382749,	 0.0009819135
	 0.0156548387,	 0.512919689
	 0.60228062,	 0.229155666
	 0.568278462,	-0.411689218
	-0.389717538,	-0.510470845
	-0.272470698,	 0.269576857
	 0.0066904403,	 0.00556857099
	 0.00231560963,	 0.000390793502
	 0.00145087065,	-0.000441635313
END
BEGIN
	-0.000440532366,	-0.000114365165
	-0.00237858708,	-0.00144211125
	-0.00886085405,	-0.00405677996
	-0.0669382749,	 0.0009819135
	 0.0156548387,	 0.512919689
	 0.60228062,	 0.229155666
	 0.568278462,	-0.411689218
	-0.389717538,	-0.510470845
	-0.272470698,	 0.269576857
	 0.0066904403,	 0.00556857099
	 0.00231560963,	 0.000390793502
	 0.00145087065,	-0.000441635313
END
BEGIN
	-0.969518196,	 0.181608341
	-0.837636563,	 0.511565505
	-0.688524903,	 0.687939135
	-0.335348153,	 0.86395861
	 0.105324211,	 0.348481973
	-0.0993382373,	 0.320309617
	-0.082736031,	 0.136428004
	-0.339799591,	 0.186612237
	-0.625010821,	-0.115813151
	-0.557323616,	 0.802341408
	-0.207405498,	 0.960102874
	 0.113994351,	 0.97624773
END
BEGIN
	 0.225356577,	 69.5420589
	 0.240719942,	 75.3393038
	 0.248364744,	 78.2386176
	 0.255985271,	 81.1384446
	 0.261052145,	 83.0719686
	 0.263160163,	 83.8776794
	 0.265266309,	 84.6834361
	 0.268772399,	 86.0264683
	 0.271690174,	 87.1457641
	 0.28622703,	 92.7436941
	 0.301254424,	 98.5496536
	 0.316207745,	 104.358357
END
BEGIN
	 0.225356577,	 69.5420589
	 0.240719942,	 75.3393038
	 0.248364744,	 78.2386176
	 0.255985271,	 81.1384446
	 0.261052145,	 83.0719686
	 0.263160163,	 83.8776794
	 0.265266309,	 84.6834361
	 0.268772399,	 86.0264683
	 0.271690174,	 87.1457641
	 0.28622703,	 92.7436941
	 0.301254424,	 98.5496536
	 0.316207745,	 104.358357
END
BEGIN
	 53.47389682 ,	 0.044496298750000003 
	 53.479231609999999 ,	 0.047085166919999998 
	 53.481981480000002 ,	 0.048272404599999999 
	 53.484786579999998 ,	 0.049398191139999999 
	 53.486687289999999 ,	 0.05011774317 
	 53.487486490000002 ,	 0.050410733370000002 
	 53.488289940000001 ,	 0.050699877259999998 
	 53.489638470000003 ,	 0.051173528629999999 
	 53.490771260000002 ,	 0.051560649829999999 
	 53.496561079999999 ,	 0.053400666889999997 
	 53.502855089999997 ,	 0.055138390789999998 
	 53.509402000000001 ,	 0.056744996989999998 
END
BEGIN
	 53.47389682 ,	 0.044496298750000003 
	 53.479231609999999 ,	 0.047085166919999998 
	 53.481981480000002 ,	 0.048272404599999999 
	 53.484786579999998 ,	 0.049398191139999999 
	 53.486687289999999 ,	 0.05011774317 
	 53.487486490000002 ,	 0.050410733370000002 
	 53.488289940000001 ,	 0.050699877259999998 
	 53.489638470000003 ,	 0.051173528629999999 
	 53.490771260000002 ,	 0.051560649829999999 
	 53.496561079999999 ,	 0.053400666889999997 
	 53.502855089999997 ,	 0.055138390789999998 
	 53.509402000000001 ,	 0.056744996989999998 
END
BEGIN
	 50 ,	 0 
	 50 ,	 0 
	 50 ,	 0 
	 50 ,	 0 
	 50 ,	 0 
	 50 ,	 0 
	 50 ,	 0 
	 50 ,	 0 
	 50 ,	 0 
	 50 ,	 0 
	 50 ,	 0 
	 50 ,	 0 
END
BEGIN
	 50 ,	 0 
	 50 ,	 0 
	 50 ,	 0 
	 50 ,	 0 
	 50 ,	 0 
	 50 ,	 0 
	 50 ,	 0 
	 50 ,	 0 
	 50 ,	 0 
	 50 ,	 0 
	 50 ,	 0 
	 50 ,	 0 
END
