! Fachhochschule Frankfurt am Main - Electrotechnik Labor
! January 22, 2015 - 15:18
! This file was generated by Network Analyzer Importer software
! Data was imported from Network Analyzer HEWLETT PACKARD,8722A,0,1.03
! Two-port S-parameter data
# GHZ S MA R 50
! Freq  MagS11  AngS11  MagS21  AngS21  MagS12  AngS12  MagS22  AngS22
!
1.0000		0.0613299159		151.1991176298		0.9807385937		-84.8280089093		0.9820578914		-85.1531124250		0.0491780218		151.7293454292
1.0200		0.0605528980		148.0370880253		0.9849592037		-86.5308596614		0.9757072854		-86.9269334057		0.0502122932		149.5386559019
1.0400		0.0606107784		148.3046172214		0.9756901285		-88.3402875187		0.9807012945		-88.1026086506		0.0490594838		146.8054279137
1.0600		0.0598452330		149.3506706144		0.9838268364		-90.0870863692		0.9791993267		-89.7125074261		0.0480276298		143.4145279387
1.0800		0.0583289075		151.0043524755		0.9768870801		-91.5448693338		0.9777643992		-91.5273823168		0.0474803916		139.2451712670
1.1000		0.0564237853		151.7959243975		0.9843335197		-92.9464993728		0.9738995841		-93.2945583967		0.0466803013		135.9088512294
1.1200		0.0542625369		148.6974110691		0.9798098041		-94.8383340020		0.9731433237		-94.5830917312		0.0457589077		133.5289488781
1.1400		0.0543183540		142.3466483322		0.9843407903		-96.4296433105		0.9776936649		-96.7652094786		0.0464499449		131.3842324175
1.1600		0.0552417164		136.4577589744		0.9802275817		-98.4429152547		0.9744197573		-98.5371533165		0.0470748706		133.1644528796
1.1800		0.0587869997		132.0713583332		0.9831723318		-100.0932808092		0.9722007384		-100.1755089095		0.0499775997		132.3659096175
1.2000		0.0615205251		131.4870523498		0.9671975425		-102.0048585767		0.9706745059		-101.6483721950		0.0509890268		128.9570486296
1.2200		0.0610544420		131.0390955348		0.9766445468		-103.6862579972		0.9753159775		-103.0639555817		0.0506827016		126.1445283994
1.2400		0.0576758405		130.8886103648		0.9688238317		-105.1297548422		0.9755411534		-104.9117895197		0.0467484072		124.9311215173
1.2600		0.0503395597		128.6425180462		0.9740186392		-106.9633554151		0.9742769964		-107.1840100018		0.0428527977		126.8178735259
1.2800		0.0429679168		122.2889935766		0.9685519398		-108.6667324334		0.9662483079		-108.3502543071		0.0402335639		128.0629435061
1.3000		0.0391106166		116.6737608379		0.9771147348		-109.9222599882		0.9668677915		-110.0192628838		0.0385051075		130.9779344659
1.3200		0.0393593261		112.7800537662		0.9844548531		-111.5289767820		0.9681681781		-111.8007380358		0.0381318213		130.9374833589
1.3400		0.0418119520		113.2916009579		0.9745767505		-113.4921296390		0.9733407076		-113.6845120689		0.0369369849		128.2984805825
1.3600		0.0446857933		117.0790948949		0.9691677474		-114.8898047067		0.9683024559		-115.1726721990		0.0366248202		121.8260472762
1.3800		0.0448521760		122.4398031035		0.9753399392		-116.3309443130		0.9704433408		-116.9743884432		0.0341983564		112.8066770555
1.4000		0.0419436819		126.3915266200		0.9722065304		-118.4120894758		0.9661156135		-118.3071318152		0.0308826188		107.7047672439
1.4200		0.0377405145		126.8603363342		0.9791342091		-120.0492226674		0.9654573889		-119.8536052816		0.0280507648		103.7617508082
1.4400		0.0332711950		120.6226781456		0.9710413191		-121.4800999097		0.9687203244		-121.8484913612		0.0262647201		106.4957898042
1.4600		0.0309036702		109.3519515725		0.9713522696		-123.6301568147		0.9700143577		-123.6870679412		0.0288998783		110.3898477649
1.4800		0.0336877310		100.2900501915		0.9624066716		-125.4751626745		0.9663500023		-125.3353280532		0.0313051556		109.7752326799
1.5000		0.0352805103		97.9583830237		0.9656880900		-126.7518408136		0.9586304646		-126.8939747364		0.0320673507		104.6760007003
1.5200		0.0336062025		101.1626125489		0.9627760394		-128.3302251591		0.9635296843		-128.1054497756		0.0299805890		101.4525484003
1.5400		0.0296768199		109.4364628276		0.9723961748		-129.4169358024		0.9691946610		-129.9058214129		0.0260414632		100.7301167330
1.5600		0.0239905364		116.3766014537		0.9666921793		-131.7188575716		0.9643041887		-131.6850395041		0.0219276637		105.4494132104
1.5800		0.0182784181		121.9432729310		0.9731272460		-133.1446870641		0.9636848399		-133.4627939484		0.0199492493		113.1565093311
1.6000		0.0148083376		120.1755545151		0.9642994276		-134.7153570700		0.9574718589		-135.1523762599		0.0185675335		116.1675847077
1.6200		0.0139877370		110.6541206332		0.9648873712		-136.7891126902		0.9652759832		-136.6166774045		0.0185861336		117.7720947894
1.6400		0.0167631504		105.4040695411		0.9639122222		-138.5270469559		0.9655456278		-138.3466089304		0.0190560415		114.2189809195
1.6600		0.0198906077		108.7581152365		0.9548166337		-140.3271388272		0.9632479272		-140.0870526667		0.0185158192		105.6332652852
1.6800		0.0214528383		117.5344530549		0.9641755208		-141.5180522799		0.9612506776		-141.7555236507		0.0153133175		98.9768940734
1.7000		0.0205871181		128.9889236070		0.9709709165		-143.5298875152		0.9568119664		-143.1841925424		0.0126189651		106.7504663189
1.7200		0.0170280062		139.6327753131		0.9771498340		-145.1167524804		0.9640733458		-144.6799089646		0.0119700408		122.7145134038
1.7400		0.0137788393		150.1193502066		0.9638462498		-146.8603828423		0.9641319015		-146.5503668976		0.0153230398		135.8825517668
1.7600		0.0098365781		162.9107474861		0.9656460727		-148.4809924846		0.9625760091		-148.6543068458		0.0180047213		135.5858499282
1.7800		0.0095319638		175.3084792009		0.9632631043		-149.9876399332		0.9628931274		-149.8951882902		0.0181893225		138.9519812131
1.8000		0.0129061787		175.6711101535		0.9629272484		-151.4791018003		0.9592995881		-151.5190075701		0.0167477714		146.8854594645
1.8200		0.0183684961		172.5691151563		0.9638185724		-153.2402293882		0.9562804747		-153.3482699277		0.0162487774		160.0782312575
1.8400		0.0231695921		170.8509550832		0.9637023149		-154.7950119803		0.9641655338		-155.2081393850		0.0170561867		172.8082176989
1.8600		0.0267351274		170.5454077322		0.9663765256		-156.6555335523		0.9636237980		-156.5769699874		0.0187984931		-179.2587715752
1.8800		0.0270916340		172.2475498271		0.9650867206		-158.4926405894		0.9656369503		-157.9712871228		0.0206882283		-174.8029408551
1.9000		0.0257209462		173.6905430468		0.9614299543		-159.9245964764		0.9648354627		-160.1218666260		0.0212812355		-174.6284357110
1.9200		0.0235127506		173.0741711080		0.9635464841		-161.4663489962		0.9598612223		-161.6998480139		0.0214182679		-176.7250740825
1.9400		0.0227127053		172.5694131544		0.9684967526		-163.0804441358		0.9636959767		-163.3348179280		0.0194587540		178.6126642304
1.9600		0.0226703188		172.2782438145		0.9654258705		-164.9920494754		0.9545554268		-164.7259262576		0.0177490284		-179.7290853904
1.9800		0.0254218885		174.1089054545		0.9680006947		-166.8207124122		0.9597609044		-166.6530766753		0.0188104452		-177.4079901373
2.0000		0.0274741677		178.9597870199		0.9659140557		-168.4486567658		0.9640050594		-168.5513377396		0.0232131058		176.3749294466
2.0200		0.0313124807		-174.8311645191		0.9599481996		-170.1298221547		0.9593662350		-169.9276194567		0.0271071521		168.7422481010
2.0400		0.0345708709		-173.1047480966		0.9634175418		-171.3719504794		0.9587739317		-171.7502285761		0.0297507209		163.0706509225
2.0600		0.0379910134		-174.7602563995		0.9674882146		-173.2977676951		0.9579396259		-173.3409209887		0.0310358446		160.6758867024
2.0800		0.0407129204		179.6993686414		0.9594723106		-174.8283396076		0.9602047986		-174.9529603109		0.0346942497		161.4425349904
2.1000		0.0434580134		173.3235071076		0.9651105869		-176.6282194657		0.9559475848		-176.8780022353		0.0366566668		163.6876817070
2.1200		0.0461775694		169.2567776170		0.9520052804		-178.0913373958		0.9636810605		-178.2397294689		0.0393389869		166.9218806168
2.1400		0.0462729547		165.9637565321		0.9658697011		-179.6415553156		0.9599313392		-179.9198533815		0.0420808505		167.4340162046
2.1600		0.0453766160		165.1705007616		0.9610364055		178.8591498367		0.9565529681		178.3290172790		0.0436451061		166.9986293123
2.1800		0.0431896198		164.5165248007		0.9580919188		176.8064047597		0.9658364743		176.6053697392		0.0441489096		165.7848503596
2.2000		0.0415410376		162.3653687420		0.9658007350		175.0222587122		0.9637531322		175.1245608319		0.0435610527		164.2586118089
2.2200		0.0417424510		162.3598485942		0.9564688937		173.6618285449		0.9635729403		173.1351758034		0.0427666321		163.0148818464
2.2400		0.0430867856		161.1944975024		0.9638285870		171.0011561549		0.9581633826		171.6969860700		0.0418678985		161.8110295209
2.2600		0.0466605402		163.5318211763		0.9612224172		169.8253162486		0.9551224581		169.8433402020		0.0434834852		159.4919075286
2.2800		0.0519635906		164.8981608863		0.9667214684		168.2700764122		0.9552582483		168.7083776884		0.0456671506		156.2496350277
2.3000		0.0534935903		164.8007885841		0.9630990222		166.3772260870		0.9609531108		166.9558773985		0.0484709435		151.1142344470
2.3200		0.0555911149		163.1877798360		0.9599285410		165.1831006493		0.9674383443		165.3044552835		0.0507044841		147.0990178989
2.3400		0.0566787837		158.5827708137		0.9586388378		164.5258799840		0.9620974447		163.3613337645		0.0522836086		144.6360491171
2.3600		0.0588802227		152.0959718549		0.9636435513		161.9460539714		0.9517483485		161.1484970012		0.0518875851		144.4701601152
2.3800		0.0608018095		147.8315342530		0.9709893362		160.2779804730		0.9530384743		160.0117237739		0.0548807029		143.5817293819
2.4000		0.0611943546		144.9090806539		0.9615664583		158.4001808733		0.9569437088		158.6088126206		0.0589925357		144.1479120702
2.4200		0.0624144540		143.6098600049		0.9646337154		156.5752972820		0.9658392898		156.9411856575		0.0620823264		142.2523845803
2.4400		0.0606119389		143.7582800613		0.9665418737		154.9860574178		0.9681171915		154.8081987107		0.0629298924		139.6060918920
2.4600		0.0590873812		142.3873192417		0.9628599949		152.8916285532		0.9652517603		152.6628864970		0.0623478005		137.0677873761
2.4800		0.0577351118		139.3796100420		0.9660391779		151.6822005902		0.9566761637		151.7288292217		0.0621778065		134.9105175567
2.5000		0.0579222770		135.7591306289		0.9610944772		150.0369065362		0.9588199595		150.5319782819		0.0612206832		133.1214638452
2.5200		0.0600820277		131.9735534462		0.9662844299		148.0446769394		0.9644278531		148.2598268882		0.0597701847		134.2384858551
2.5400		0.0642467998		129.8523946341		0.9605678179		146.8435800286		0.9618035174		146.5393487104		0.0620769589		132.8210362292
2.5600		0.0683977318		127.9276762474		0.9556824800		145.2386543589		0.9594171418		144.8267253467		0.0660524830		131.5267833895
2.5800		0.0698927484		124.5695606794		0.9560728419		143.6703564103		0.9616883067		143.8664904808		0.0697479765		126.9388336728
2.6000		0.0668270897		122.0239311964		0.9648132474		142.2895282898		0.9649369440		142.2356305517		0.0696290384		123.6321717523
2.6200		0.0641845953		117.1848804442		0.9672464387		140.5101397812		0.9636732638		140.0088112170		0.0688527278		121.9712274220
2.6400		0.0612547692		110.9903758881		0.9715743652		138.8702817500		0.9628254397		138.0268253887		0.0684297775		121.6619048059
2.6600		0.0605364504		105.9411810642		0.9726039539		136.6808001587		0.9566570281		136.2408148556		0.0681517067		122.3094646781
2.6800		0.0625609975		103.6689219845		0.9665965435		134.9859293635		0.9567134169		135.0374773670		0.0694207681		122.4779534424
2.7000		0.0641695652		104.9338288037		0.9659056871		133.5674866004		0.9615917501		133.9790341237		0.0693790247		121.6096663420
2.7200		0.0632108542		105.2481419089		0.9736151303		131.6684381272		0.9654857777		131.8750785239		0.0693028687		120.0212484827
2.7400		0.0609075507		104.3917818306		0.9589483800		129.7619147275		0.9714347782		130.0159827515		0.0693229437		117.7128745549
2.7600		0.0572707833		101.2347145947		0.9671831718		128.2989771838		0.9643327624		128.0634353587		0.0678633994		114.8601665038
2.7800		0.0582867878		93.5928250383		0.9623526026		126.4698056001		0.9560839293		127.1438575421		0.0641381817		112.7003371036
2.8000		0.0611017790		85.6819577093		0.9681852217		124.9779665430		0.9609421503		125.2138350291		0.0608398114		110.8287232202
2.8200		0.0666276417		81.5850463329		0.9706106448		123.3158366444		0.9669267859		123.1975464482		0.0607331006		110.5265616841
2.8400		0.0716454421		77.8685951946		0.9701901556		121.8242800903		0.9680050367		121.9854686522		0.0604718113		109.5762618874
2.8600		0.0684810956		75.7299784587		0.9710191116		120.0557864231		0.9727387165		120.3444249829		0.0623254229		107.2776680422
2.8800		0.0620961953		72.7505444857		0.9756872133		118.1409039885		0.9708052770		118.6331732625		0.0614799590		103.1498344899
2.9000		0.0533856990		67.0185887621		0.9766434893		116.6651372308		0.9772638985		116.3370031329		0.0582949372		99.8148956643
2.9200		0.0475799776		56.0869703278		0.9776349611		114.6322354159		0.9755657899		115.1068719273		0.0553027914		98.9444784045
2.9400		0.0470886207		46.3786123559		0.9714335821		112.8773957288		0.9751330570		112.5835888977		0.0529892046		100.1126346482
2.9600		0.0502205680		42.0813426589		0.9766454819		110.6480368274		0.9730232415		111.4777235846		0.0533859176		101.0465757243
2.9800		0.0518121423		45.2565256614		0.9759849338		109.5465677126		0.9734322658		109.4074533364		0.0531593326		100.3076043503
3.0000		0.0530052006		47.9754016525		0.9736317552		107.5438630568		0.9729747191		107.7541207049		0.0524159622		98.0092127604
3.0200		0.0485933002		51.9632763484		0.9713660386		105.7876430543		0.9713575888		106.1004301849		0.0507097539		94.9087851533
3.0400		0.0435253103		49.0868794783		0.9704515120		104.7699744309		0.9816664522		104.7723933009		0.0469247337		93.5071851062
3.0600		0.0389232218		37.9722499152		0.9783720336		103.3730393003		0.9742212305		102.8321084151		0.0416343873		92.1528641267
3.0800		0.0423891488		22.8106512783		0.9731115260		101.3346017228		0.9815085532		100.9077999620		0.0374294546		93.4619583113
3.1000		0.0498065331		12.3160424914		0.9846281570		99.4223230825		0.9783147700		98.8355773506		0.0343028569		97.5660129402
3.1200		0.0560682893		6.9166170155		0.9799580326		97.8936612355		0.9750707378		97.5516269658		0.0325781164		99.6426551411
3.1400		0.0555319471		6.1715490932		0.9789650707		96.2674120632		0.9756845950		96.1371418747		0.0313407330		96.6505560943
3.1600		0.0502954036		4.8206568023		0.9866047087		94.1080926908		0.9869918696		94.1242402456		0.0310003583		90.2150388754
3.1800		0.0408258311		-5.0926428868		0.9877785096		91.9386979181		0.9871491375		92.2483455092		0.0263681530		81.8534787820
3.2000		0.0348244579		-20.3724035853		0.9892078245		90.5249859673		0.9872841923		90.5189243533		0.0204972384		77.7808802284
3.2200		0.0369701134		-37.4176501013		0.9780885572		89.2151763599		0.9762754284		89.0292225345		0.0158154564		80.0446601856
3.2400		0.0437641447		-44.0835613024		0.9779672332		86.7979522962		0.9810224476		87.1363505677		0.0147124566		89.7623063212
3.2600		0.0482901966		-40.8470072440		0.9903155426		85.7161291382		0.9774262486		85.6021160413		0.0154989872		95.2957693014
3.2800		0.0492976217		-37.0649780623		0.9887881643		84.0831843530		0.9786310002		83.2880743878		0.0159100596		92.7279443415
3.3000		0.0466609329		-33.1203812813		0.9852398810		81.7223192964		0.9830428442		82.0917606332		0.0147066590		88.3296775777
3.3200		0.0399019920		-36.2218851200		0.9869269353		80.1613639909		0.9788220539		80.1370996150		0.0124246099		87.6839015034
3.3400		0.0394544832		-50.3979910712		0.9854847047		78.3226130550		0.9925748842		78.6444621447		0.0088606185		102.6077388645
3.3600		0.0432779006		-64.8082868608		0.9873417701		76.8434454706		0.9899798635		76.5960469660		0.0099525436		139.0154989317
3.3800		0.0527151824		-73.9677539414		0.9854630708		75.1977365282		0.9889070657		74.8075306182		0.0139634310		157.0423995811
3.4000		0.0607891653		-78.6890065106		0.9880991771		73.6583970349		0.9888661958		73.1622155018		0.0169323212		159.1304676341
3.4200		0.0626892872		-80.9268663354		0.9839470643		71.9314467257		0.9838690493		71.5594289014		0.0174114355		162.2696764700
3.4400		0.0595789956		-83.6847226608		0.9860676307		70.0059849848		0.9845617801		69.8114530674		0.0164385739		175.2945871017
3.4600		0.0546982787		-90.3856023382		0.9928970121		67.7374912227		0.9809528588		68.1946175699		0.0185377740		-168.6033550508
3.4800		0.0517588035		-99.7445236592		0.9902030551		66.3770916356		0.9881049970		66.6211020534		0.0228978607		-160.1318812115
3.5000		0.0543725851		-107.7357939275		0.9853575310		64.5873097960		0.9871126882		64.8863679958		0.0271648018		-160.1502494806
3.5200		0.0605655052		-112.9976792407		0.9817463520		62.3882832373		0.9911247125		62.5244410419		0.0304717666		-162.4099925320
3.5400		0.0668216647		-113.7290138666		0.9872305143		61.2657133576		0.9893706040		60.4760832489		0.0320906880		-165.4070628400
3.5600		0.0693399963		-114.1820445449		0.9790340879		59.5214171076		0.9790648964		59.8865151014		0.0342422520		-167.6297365815
3.5800		0.0712886298		-115.6449866014		0.9966594684		57.1945706861		0.9824907510		57.9923512446		0.0346745956		-170.8273164963
3.6000		0.0713634669		-118.3034485349		0.9923223224		55.6570027872		0.9792618196		56.1326449201		0.0375966903		-172.7985511253
3.6200		0.0735499822		-123.4724781375		0.9903609075		54.0891904631		0.9912662801		54.0530304735		0.0423392117		-172.1703158441
3.6400		0.0790634114		-130.2660615289		0.9921720258		52.1565483977		0.9898834648		52.4779322893		0.0488467278		-175.0180498924
3.6600		0.0850604072		-135.6831869319		0.9894175019		50.6474267565		0.9884078155		50.7412107575		0.0552710015		-179.3395933547
3.6800		0.0896001665		-140.0951101227		0.9897321754		48.8429912130		0.9888767744		48.7761476453		0.0603015512		175.6427166804
3.7000		0.0905859018		-143.9697904284		0.9922260206		47.3507745918		0.9905656452		46.9924818535		0.0620291054		173.0768974327
3.7200		0.0901069354		-147.8231175231		0.9924273580		45.0622883179		0.9949459933		45.3255828525		0.0632362080		173.6098034840
3.7400		0.0900791914		-151.7853557308		0.9899229708		43.3960959909		0.9808250535		43.9007146207		0.0677979056		175.2588472545
3.7600		0.0923464064		-155.5205902321		0.9911583166		41.3100620883		0.9867115619		41.9411111905		0.0741138025		176.2549773658
3.7800		0.0974294173		-158.1877576020		0.9953130420		39.4560243118		0.9918130380		40.1649263615		0.0800999926		173.3626950204
3.8000		0.1026124931		-159.8323681177		0.9790914085		38.2765874926		0.9971996691		38.3043603631		0.0827244742		169.1071880449
3.8200		0.1066333185		-162.1121203861		0.9864122765		36.2395427778		0.9969358018		35.8883654802		0.0866264192		166.2201583759
3.8400		0.1106297760		-164.3075190175		0.9838612208		34.1632648027		0.9887606344		34.2099692270		0.0870212187		163.2220892171
3.8600		0.1125425562		-167.5626084857		0.9853761735		32.8356624230		0.9856910588		32.3438483584		0.0898270676		161.0395150500
3.8800		0.1159333530		-172.3114241552		0.9901891322		31.2326785048		0.9846829060		30.9911628431		0.0932613646		159.4220129517
3.9000		0.1223371579		-176.9327505556		0.9908372126		28.8574868491		0.9836359888		29.5905414568		0.0986568157		158.5560939907
3.9200		0.1271549069		179.5805793957		0.9899194862		26.8446890033		0.9864934485		28.0364139776		0.1062182781		156.6030886810
3.9400		0.1304908368		176.1950436215		0.9835257630		25.5027847401		0.9950719471		25.6958791305		0.1130290373		152.9428767276
3.9600		0.1310229650		174.0205026756		0.9748536470		23.2857319807		0.9940106211		23.8689000897		0.1188922313		149.3940929194
3.9800		0.1298206368		171.7556206519		0.9798329151		22.4867139888		0.9800939125		21.9292848394		0.1208435195		147.6474080239
4.0000		0.1293955043		168.6940621380		0.9804216127		20.8031919650		0.9713329895		20.5564684273		0.1220629260		145.6951066798
4.0200		0.1288575243		165.4643333826		0.9811023432		18.8970903195		0.9768896958		19.1900361446		0.1236016490		145.4879254956
4.0400		0.1306949481		162.3604548863		0.9809003476		17.1800534828		0.9879620060		17.4834666761		0.1273314114		144.5577086642
4.0600		0.1359731473		160.3846596752		0.9872886103		15.0895332417		0.9899558901		15.6780329837		0.1306029673		143.5662149328
