! Fachhochschule Frankfurt am Main - Electrotechnik Labor
! January 22, 2015 - 15:14
! This file was generated by Network Analyzer Importer software
! Data was imported from Network Analyzer HEWLETT PACKARD,8722A,0,1.03
! Two-port S-parameter data
# GHZ S MA R 50
! Freq  MagS11  AngS11  MagS21  AngS21  MagS12  AngS12  MagS22  AngS22
!
1.0000		0.0529067232		157.2695507703		0.1756407909		5.6437143792		0.1753605086		5.4223560168		0.0603416990		-135.3124774144
1.0200		0.0539384941		155.2129689583		0.1790436269		4.1859997018		0.1760827698		3.7537943363		0.0574414663		-136.7679721855
1.0400		0.0542804959		153.6375369386		0.1792678888		1.8315803763		0.1798205942		2.0059465986		0.0549302336		-139.4414335210
1.0600		0.0547759756		152.7015147028		0.1847839694		0.0496730591		0.1817287551		0.3920875784		0.0526649590		-141.7504674950
1.0800		0.0539082175		151.9951309247		0.1843113950		-1.4801079684		0.1828603715		-1.5588138708		0.0506520254		-143.9983270579
1.1000		0.0526750759		150.7600115316		0.1869049048		-3.0629401397		0.1867336141		-3.1313947215		0.0498707727		-145.5149523507
1.1200		0.0514472082		148.3240287354		0.1886454102		-4.7836539233		0.1893522950		-4.5665567939		0.0488705041		-145.9129968171
1.1400		0.0514469451		145.6948549501		0.1927615411		-6.2805910340		0.1921388752		-6.7590165274		0.0484899807		-146.0549022778
1.1600		0.0519261794		142.8733449940		0.1941660167		-7.9683590375		0.1940020985		-8.4532228909		0.0478220220		-145.5366732257
1.1800		0.0528146834		140.9465953774		0.1974098601		-9.9592368409		0.1953942208		-10.1993937389		0.0460665277		-144.5792491009
1.2000		0.0540207501		140.3879159281		0.1978139689		-12.3488012650		0.1976164964		-11.7958079208		0.0445169773		-142.7481223182
1.2200		0.0538829174		141.2277486758		0.2010079634		-13.8727342087		0.2005462586		-13.6920856454		0.0422052320		-141.9249448173
1.2400		0.0524001127		141.4685250539		0.2007141201		-15.5259767219		0.2021674743		-15.3353355696		0.0393900377		-141.5035405902
1.2600		0.0498398247		140.6731083877		0.2041060165		-17.3526186338		0.2055774577		-17.3247235515		0.0365155459		-141.8389045819
1.2800		0.0471696830		137.3416808744		0.2057158324		-19.1338070463		0.2058232382		-19.2133718461		0.0327395391		-143.8484495581
1.3000		0.0458249654		134.0016585484		0.2100947821		-20.4026249894		0.2064518187		-21.1691614319		0.0305653791		-147.3313593003
1.3200		0.0462890844		130.2417660764		0.2105743466		-22.4208951677		0.2095347321		-22.3554009982		0.0278370918		-150.5755282027
1.3400		0.0473029928		128.8622177226		0.2117378259		-23.7784465606		0.2120613256		-23.9608180229		0.0271661085		-153.4871274240
1.3600		0.0482139575		129.4184261183		0.2134854991		-25.7326436431		0.2109490392		-25.7541435428		0.0273979811		-155.1173164192
1.3800		0.0470094085		131.3070770309		0.2161861490		-27.0334717214		0.2143511551		-27.4378770339		0.0286590648		-155.8264983317
1.4000		0.0441290167		132.2865189289		0.2151243167		-29.3395992377		0.2169126551		-29.1967217373		0.0303380406		-154.9606929090
1.4200		0.0408783238		131.6938207126		0.2196469716		-30.8081195084		0.2186655756		-30.6497136891		0.0315603962		-152.5290165228
1.4400		0.0383149420		127.6913763921		0.2207687693		-32.7383153552		0.2195953771		-33.0303024610		0.0320529931		-149.6233057224
1.4600		0.0371781866		123.4369354179		0.2223743400		-34.0597068711		0.2201089021		-34.6160147640		0.0329350412		-145.7789199133
1.4800		0.0382748879		120.1401035300		0.2223332625		-36.4263361217		0.2231538640		-36.4412829360		0.0330708679		-141.8015703905
1.5000		0.0396878120		119.9621064044		0.2245180010		-38.1219053882		0.2226227544		-38.1777399312		0.0321216962		-137.2763771094
1.5200		0.0399088722		122.0843282379		0.2241793078		-40.2999044689		0.2239742547		-39.1161066388		0.0313440814		-134.2061205070
1.5400		0.0379038492		125.5175718044		0.2263725703		-41.1383265659		0.2271736221		-41.2583276103		0.0292461111		-131.7589046276
1.5600		0.0346509295		127.0228610539		0.2269093426		-43.1143522750		0.2270300485		-42.8674204136		0.0280298119		-129.3253452254
1.5800		0.0303512929		126.5703172461		0.2291643051		-44.2379013493		0.2276297160		-45.2226929699		0.0257064181		-130.6400403773
1.6000		0.0277357641		121.5165081852		0.2284618998		-45.9295231400		0.2275803723		-46.4846887180		0.0245739585		-131.1796521796
1.6200		0.0273855297		114.5301597806		0.2301332265		-48.3610953306		0.2320203442		-47.8761041222		0.0243279437		-132.9031219756
1.6400		0.0290653451		112.8766940911		0.2326569482		-50.2391812669		0.2313336654		-49.9955425364		0.0249244161		-135.3472379715
1.6600		0.0307309815		115.0699555356		0.2316385039		-51.8712865019		0.2322804797		-51.7945692329		0.0258545522		-137.7447986226
1.6800		0.0304512283		118.5676341775		0.2325473250		-53.7252420844		0.2316330334		-53.4252535742		0.0273372607		-140.2906621950
1.7000		0.0279120702		123.6455464446		0.2360655142		-55.0392250311		0.2334723486		-54.7674705460		0.0291743689		-140.9997099531
1.7200		0.0248191397		125.8967584298		0.2366556305		-57.1609055284		0.2340402974		-56.8181256185		0.0296940497		-141.7321759000
1.7400		0.0214329311		124.7309646219		0.2361493199		-58.4667238081		0.2363921686		-58.6328477195		0.0308229676		-141.4542589183
1.7600		0.0194199920		119.5019810385		0.2364971917		-60.3112905937		0.2378252247		-60.3773148016		0.0312691149		-141.7697595296
1.7800		0.0200120958		114.8064144347		0.2356935460		-61.9102676616		0.2369197634		-62.3770712899		0.0315678051		-141.6635038688
1.8000		0.0211832908		114.6693846191		0.2363939891		-63.9460285536		0.2359073585		-63.3296992933		0.0308978057		-142.6582652196
1.8200		0.0229544806		119.5919364888		0.2365286424		-65.5272909406		0.2370440027		-65.6143389379		0.0306577181		-144.5696585757
1.8400		0.0235051879		124.8726128772		0.2380229759		-66.7845279356		0.2394007523		-66.9893724260		0.0308634990		-146.8647961409
1.8600		0.0231844577		131.6867781620		0.2395750541		-68.8128831921		0.2381355497		-68.3550551092		0.0310050731		-149.4563539568
1.8800		0.0210316212		135.0293960811		0.2397126726		-71.1527201037		0.2401731787		-70.4328586790		0.0321638295		-152.3256500049
1.9000		0.0198312929		134.9259636645		0.2413505913		-72.1057381281		0.2408042524		-72.2430095771		0.0332335843		-155.1366578605
1.9200		0.0195377683		130.3892706713		0.2430876591		-73.9108355478		0.2408470834		-74.6078259390		0.0349538686		-156.3752720607
1.9400		0.0197846038		127.3255961907		0.2414568477		-75.9988746211		0.2401079620		-75.9880409167		0.0358262395		-156.7353221802
1.9600		0.0213812222		128.6841651070		0.2414757541		-77.5212692435		0.2389271790		-77.6501833899		0.0368521628		-157.0591822227
1.9800		0.0223475586		131.2905954209		0.2424816007		-80.3841477382		0.2404033395		-79.5448702792		0.0371583384		-158.2280825385
2.0000		0.0232040436		138.2553852260		0.2423444209		-81.6642837773		0.2413632685		-81.2052273245		0.0369105298		-157.5179234489
2.0200		0.0228931293		143.3568520969		0.2389647009		-83.4478900237		0.2403254101		-83.3972682736		0.0370102999		-158.2446527383
2.0400		0.0229874506		147.2434915245		0.2402238531		-85.0461080788		0.2394369710		-84.9363194838		0.0367844702		-160.6029744997
2.0600		0.0229127343		147.2650561923		0.2409378543		-86.7052291836		0.2396509240		-86.7496357552		0.0357011671		-163.5227108887
2.0800		0.0238392515		146.5712030573		0.2410369197		-88.6179418157		0.2404796295		-88.6201960527		0.0360305383		-166.3779167247
2.1000		0.0255249523		145.6681086214		0.2404804563		-90.5107930966		0.2383952702		-90.6399552095		0.0364204102		-171.1217504318
2.1200		0.0275269846		146.0445639082		0.2364979434		-92.2666742512		0.2391809930		-92.1918516442		0.0376079597		-174.5724795944
2.1400		0.0292026132		148.5471916529		0.2371637666		-94.1507529533		0.2376857363		-93.7286835373		0.0398642187		-177.6664389038
2.1600		0.0304460782		152.0607434460		0.2364761221		-95.3574363227		0.2352867183		-95.4517825782		0.0418893932		179.2068905686
2.1800		0.0307085829		153.4874747407		0.2352220277		-97.6307490517		0.2344536203		-97.8817179899		0.0436659853		177.6317703116
2.2000		0.0314773708		153.6616317062		0.2342314424		-98.8701695083		0.2349367100		-99.3558746598		0.0456414345		175.7676706816
2.2200		0.0325267019		152.1922518861		0.2328520246		-101.2686996926		0.2334347236		-101.0646063170		0.0466238404		174.4808847974
2.2400		0.0351891328		150.9196021138		0.2331174878		-103.1166142806		0.2301011226		-102.7340399176		0.0467756562		172.9404734730
2.2600		0.0378380374		150.7641762027		0.2307325257		-104.8091373821		0.2293652110		-104.3912395708		0.0461019834		170.9979226896
2.2800		0.0406210517		151.2121853078		0.2299047620		-106.2650739761		0.2288200383		-105.8472535274		0.0451742425		167.6021242161
2.3000		0.0408975827		150.9796577316		0.2269418412		-108.3082526647		0.2300435287		-107.3268176136		0.0445296707		163.2175400507
2.3200		0.0417166675		150.2983311019		0.2272395781		-109.6626191733		0.2273207121		-109.7084134625		0.0436433079		158.5649985788
2.3400		0.0420040773		148.2022821947		0.2259387294		-110.6257889581		0.2255712035		-111.5041652569		0.0445644289		152.6562758799
2.3600		0.0429878775		145.9052156232		0.2237255981		-112.6526270339		0.2228017443		-113.2078692957		0.0456231764		147.7071929942
2.3800		0.0457372410		143.4956724556		0.2259456008		-114.5867772114		0.2206070665		-114.1628728047		0.0489510237		142.4451635574
2.4000		0.0457836652		143.7550167396		0.2210414917		-116.6871003336		0.2200313666		-116.1048144910		0.0517821016		138.8156663511
2.4200		0.0478624585		143.7589260039		0.2210264976		-117.9803443089		0.2208827179		-117.9015822756		0.0549277056		135.9355958493
2.4400		0.0482601725		144.4807551358		0.2172730776		-119.8347216487		0.2189614926		-119.8667058864		0.0580258505		134.1649740129
2.4600		0.0473999402		142.7971801536		0.2165593516		-121.9150960868		0.2163165342		-122.0028114306		0.0604420139		133.4195826145
2.4800		0.0465033576		139.7445991358		0.2147626675		-123.6595823011		0.2136991303		-123.2214434997		0.0617862887		132.5241391693
2.5000		0.0466135075		136.1389686432		0.2123524685		-124.5373436139		0.2118325566		-124.7546839918		0.0619216986		131.6348548629
2.5200		0.0482709380		131.4742972987		0.2102479594		-126.9256215771		0.2124839362		-127.1315807476		0.0630545775		129.3497661084
2.5400		0.0504956662		130.3872080377		0.2086275388		-128.1506293727		0.2089033270		-128.5499997751		0.0619924678		127.7584048630
2.5600		0.0524012117		129.1382681076		0.2055965262		-129.8785288800		0.2070530168		-130.2083472866		0.0614518883		127.2440633477
2.5800		0.0526601861		129.1524473173		0.2027826071		-131.2017401833		0.2045195238		-131.2188968161		0.0601757205		123.4493004042
2.6000		0.0514392561		128.2815620099		0.2036137388		-132.6919115617		0.2047476896		-132.8467235122		0.0605655974		120.4324300816
2.6200		0.0488623289		126.1304731573		0.2023403140		-134.6852997763		0.2019487778		-135.0030694307		0.0602448309		116.9560739871
2.6400		0.0474741223		121.0178401460		0.2013956768		-136.7530043552		0.1982064693		-137.1681830704		0.0600723293		113.6137512334
2.6600		0.0481954574		114.4736117376		0.2000859536		-138.6854237931		0.1961793190		-138.6199751884		0.0605628742		110.3634402483
2.6800		0.0497478460		113.3892555331		0.1937111668		-140.0071959522		0.1924179111		-139.9925555149		0.0611721842		107.1609150364
2.7000		0.0527258959		109.6482532975		0.1917944197		-141.5736848121		0.1917404924		-141.0468183183		0.0611486213		104.7289191164
2.7200		0.0541522528		110.0893120133		0.1903238535		-143.9459340155		0.1902685003		-143.2716160884		0.0613952661		102.7427304162
2.7400		0.0532312365		110.2114807637		0.1870075816		-145.1117725567		0.1892556229		-145.1695603344		0.0614478725		100.3517717479
2.7600		0.0501997216		108.2724801952		0.1846268865		-146.7170681585		0.1861775697		-146.9233744621		0.0620808890		97.8918577575
2.7800		0.0479033953		103.7252864000		0.1824954613		-148.5679286828		0.1824622071		-148.5390820904		0.0619502097		95.4113145243
2.8000		0.0479207502		95.8596784824		0.1805985169		-150.2671273372		0.1797622788		-149.7523164121		0.0612344610		92.5779262113
2.8200		0.0504100072		89.7008353797		0.1797806557		-152.2028375379		0.1781352355		-151.6645101792		0.0613538650		89.8592861797
2.8400		0.0541153604		87.7416706391		0.1768019053		-153.2956270170		0.1756963607		-153.3092176598		0.0605991921		87.0736542585
2.8600		0.0546288660		88.0691892519		0.1741907366		-155.4588474104		0.1737987910		-154.8703583839		0.0606035029		85.4148584142
2.8800		0.0536935637		88.4061512582		0.1718191810		-157.5173254798		0.1704720069		-156.5522537553		0.0601029706		83.7839017966
2.9000		0.0503118802		87.0098189942		0.1683704216		-158.8349850210		0.1687910793		-158.6819086349		0.0590054823		81.6509290967
2.9200		0.0471994531		82.7451814771		0.1664307256		-160.6804513430		0.1649473045		-160.3900228669		0.0577939972		79.7381105264
2.9400		0.0462220985		75.1104631411		0.1624520072		-162.6942982086		0.1624513722		-162.7674916528		0.0554404283		78.2725525932
2.9600		0.0475685897		68.9349451286		0.1592423552		-164.0832618290		0.1592181785		-163.7664828652		0.0535645224		76.0587625976
2.9800		0.0505481512		65.6379876721		0.1560277462		-166.0534463691		0.1556613856		-165.3330520426		0.0503734807		74.2608134006
3.0000		0.0528911550		64.6787910981		0.1537429761		-167.8363312088		0.1558205738		-167.0844470010		0.0488281842		69.8945131193
3.0200		0.0517887007		65.9856632683		0.1503595112		-169.2647978199		0.1509205062		-168.6559862313		0.0450285564		67.1669346502
3.0400		0.0488264227		65.7157120874		0.1468495659		-170.4300163097		0.1482879192		-170.3084509188		0.0424258027		63.1481093075
3.0600		0.0435178032		62.6476579277		0.1447596160		-171.8861224141		0.1449538848		-172.4115353439		0.0397327985		59.0961532699
3.0800		0.0404935637		53.8091316313		0.1418667232		-173.9153512276		0.1405412382		-173.7920498295		0.0382978805		54.8567286894
3.1000		0.0404982009		46.1067667980		0.1392044658		-175.8512907123		0.1382482910		-175.8954603875		0.0368619488		50.4924110279
3.1200		0.0421790447		40.3064924533		0.1362278561		-177.5252222863		0.1345356310		-177.0191462525		0.0346627413		46.7413774535
3.1400		0.0434100491		40.1005031804		0.1326612521		-179.3343746729		0.1319582683		-178.2539609827		0.0320407809		41.9887224320
3.1600		0.0420731675		40.0071098771		0.1284906066		179.5475262100		0.1293280298		179.2935759149		0.0297190482		38.5300294772
3.1800		0.0377586181		39.0996148603		0.1254206746		177.3083339352		0.1255452009		178.0567448155		0.0273717720		33.5494322282
3.2000		0.0330253245		34.1865847104		0.1229299186		176.1869885860		0.1221904851		176.9792203294		0.0246912261		27.3330650099
3.2200		0.0296845245		22.2539745612		0.1180930315		174.6396855482		0.1178337342		174.9184219812		0.0219381506		19.2548881410
3.2400		0.0296722403		8.9827745956		0.1147914915		173.2287606976		0.1144848220		173.2259192279		0.0194617826		8.2690623285
3.2600		0.0324188122		1.2102735128		0.1123557700		171.8784205232		0.1111432202		171.9719640747		0.0182122027		-3.5125150459
3.2800		0.0332269925		-2.2568258663		0.1079699000		169.8763944151		0.1077350492		170.5273382183		0.0172166797		-16.2475128097
3.3000		0.0318233190		-3.8972221751		0.1044106076		168.5722455152		0.1039633769		169.0368092699		0.0174740791		-30.1627997746
3.3200		0.0280330304		-6.6499388688		0.1008495065		167.1891030144		0.1003012315		167.0731652763		0.0176822795		-41.0199284555
3.3400		0.0249240734		-20.4167124409		0.0978389601		165.7161512954		0.0972932437		166.2318241308		0.0183626812		-52.0900477871
3.3600		0.0240748402		-36.1313219566		0.0941735608		164.6380151177		0.0937095587		164.6229605452		0.0185345674		-62.6794771397
3.3800		0.0277488173		-50.0386033678		0.0904687162		162.9541082899		0.0904270847		163.1734262422		0.0199991704		-73.3175029109
3.4000		0.0316128901		-56.6944008357		0.0869205416		161.8179154551		0.0862981841		162.0712300567		0.0215332592		-84.5716923424
3.4200		0.0334973383		-60.3914970574		0.0827925264		160.4630263263		0.0824626800		161.0051530440		0.0227776363		-94.8660400230
3.4400		0.0335775602		-63.7071367667		0.0789331782		160.0325072109		0.0796608870		159.6558995776		0.0263335140		-102.6350382308
3.4600		0.0325692626		-71.5077515225		0.0760381343		158.0961059310		0.0752031607		158.4975848722		0.0297116876		-110.5104129447
3.4800		0.0326872963		-83.8835440796		0.0720920644		157.5004719673		0.0720033002		158.0745787397		0.0330560206		-114.6781521191
3.5000		0.0364072786		-94.1850622463		0.0684940954		156.5231912845		0.0682122947		156.8287576154		0.0370430665		-119.4543404349
3.5200		0.0422047066		-100.5410783651		0.0645110540		155.1306777385		0.0646589445		155.6077999533		0.0402664983		-122.8771022062
3.5400		0.0471200890		-103.5783615667		0.0611223151		154.8007832468		0.0609918298		154.4574653555		0.0428671058		-125.6971150390
3.5600		0.0499163337		-106.5985915696		0.0569112916		154.2988923504		0.0567766614		154.6814725652		0.0449083152		-128.0380423389
3.5800		0.0517249146		-110.4116303265		0.0534215753		153.6490249794		0.0533507715		154.0358991368		0.0468259800		-131.7637755430
3.6000		0.0536018794		-115.3632414074		0.0501260953		153.4544503359		0.0497331328		154.1326806977		0.0478881280		-135.9520936269
3.6200		0.0559567351		-121.4112314873		0.0463226454		153.3537129323		0.0465513405		154.0522782670		0.0491416287		-140.9199436036
3.6400		0.0608329331		-125.2996143402		0.0429054922		154.1560054816		0.0429684780		154.2277489774		0.0503306049		-146.1617907843
3.6600		0.0662486639		-128.5969460828		0.0397715670		154.6761784418		0.0396191630		155.6361721779		0.0520042723		-151.7336828678
3.6800		0.0693229180		-130.2593139589		0.0362208656		156.6128408429		0.0364414947		156.6190880116		0.0553334041		-157.6535927253
3.7000		0.0711881313		-133.3910768430		0.0334863337		158.3946293178		0.0334029626		158.5877215712		0.0587738845		-162.1918606415
3.7200		0.0716171606		-138.3532845280		0.0302479648		160.6464400720		0.0306893599		160.8696853781		0.0629914449		-166.5957691961
3.7400		0.0743965186		-143.1541954334		0.0281898032		163.8176392587		0.0276366405		163.8677496895		0.0669087551		-170.5161920537
3.7600		0.0782591193		-148.2281961171		0.0254012286		167.7838440452		0.0258099424		168.7971880147		0.0710423898		-173.3489363689
3.7800		0.0841543511		-151.7667933952		0.0235208922		173.2403461919		0.0233106615		174.4641149419		0.0750893256		-176.4291124138
3.8000		0.0888251806		-153.9136367067		0.0216353024		-179.1917901179		0.0221047229		-179.6292067745		0.0786960711		-178.6528642165
3.8200		0.0916925438		-156.3923223999		0.0208727473		-171.4074913745		0.0210794629		-172.1444722726		0.0820209162		178.7288056288
3.8400		0.0932142310		-159.3259499119		0.0199710800		-164.1399198408		0.0203963809		-163.0308105084		0.0845847473		176.2142840612
3.8600		0.0932288529		-163.6079438144		0.0201493407		-155.3320651603		0.0204586980		-155.8113432404		0.0871488198		173.7326515275
3.8800		0.0962432491		-169.0232070954		0.0213220069		-147.4507796445		0.0214188691		-146.9580539628		0.0897323243		171.2656887110
3.9000		0.1026478892		-173.6609837372		0.0229218846		-140.2225126214		0.0227970485		-139.4075514021		0.0920665061		168.5815890718
3.9200		0.1090216337		-176.1539195668		0.0246967208		-134.5713411404		0.0248318121		-133.8547255489		0.0933436573		166.0909663702
3.9400		0.1160952399		-177.9926906081		0.0270182912		-130.4964401581		0.0271338889		-129.6524135328		0.0950704934		162.8810442234
3.9600		0.1188958090		-179.3823196883		0.0294087785		-127.2088023565		0.0295673400		-127.1611395693		0.0962638850		160.2797362853
3.9800		0.1202888917		178.4189995414		0.0317674317		-124.7606398533		0.0320272994		-124.6042998294		0.0969359493		157.4595683092
4.0000		0.1195976735		174.7843924641		0.0344185699		-122.5425370144		0.0342080089		-122.0036876870		0.0960030562		154.0539984113
4.0200		0.1222458086		170.0085864505		0.0374600495		-120.9072182281		0.0374333150		-120.5987594052		0.0966845776		150.1738052921
4.0400		0.1268518809		165.1580366512		0.0401216139		-120.0766459264		0.0411177994		-119.2820263603		0.0976097029		145.8391822296
