! Fachhochschule Frankfurt am Main - Electrotechnik Labor
! January 22, 2015 - 15:16
! This file was generated by Network Analyzer Importer software
! Data was imported from Network Analyzer HEWLETT PACKARD,8722A,0,1.03
! Two-port S-parameter data
# GHZ S MA R 50
! Freq  MagS11  AngS11  MagS21  AngS21  MagS12  AngS12  MagS22  AngS22
!
1.0000		0.0526938164		158.6453292612		0.0327200374		-161.5502551438		0.0330198362		-161.9188107067		0.0449717972		150.0423281133
1.0200		0.0528272669		156.2494512183		0.0339129441		-163.6371937736		0.0336267721		-164.1403156524		0.0436050956		148.9842318203
1.0400		0.0538984095		154.8197083719		0.0347070328		-165.9225165994		0.0349049882		-165.4580227908		0.0420706356		147.6608922694
1.0600		0.0538365764		154.0776882631		0.0358339386		-167.8287763001		0.0353792699		-167.9764370855		0.0405597477		146.3121735250
1.0800		0.0530846945		153.2038651824		0.0360988863		-169.4785341904		0.0362509454		-169.3084916990		0.0402735243		143.9430979770
1.1000		0.0519330837		152.3253556561		0.0372279239		-171.0781938794		0.0372366030		-171.6146416748		0.0392391917		141.4315331265
1.1200		0.0503595584		149.7552747666		0.0382288367		-173.5486878168		0.0383171118		-173.1070470582		0.0379836054		138.5696656529
1.1400		0.0498130712		147.7320701273		0.0395872607		-174.9637765145		0.0391142704		-175.5027231423		0.0367503396		135.6455344912
1.1600		0.0499670658		144.0710408547		0.0403030788		-177.9577844713		0.0402758499		-178.0568586237		0.0354971788		133.0610809159
1.1800		0.0509513915		142.2154926604		0.0411519794		179.6149295059		0.0411575169		179.6548103849		0.0347973399		128.9506603295
1.2000		0.0516101755		141.7548873851		0.0419325067		177.8337564313		0.0422552900		177.5086453755		0.0337294054		125.2551918652
1.2200		0.0512875809		142.7286566769		0.0427717432		175.3216567888		0.0428659365		175.9149212738		0.0334330083		124.0105411407
1.2400		0.0498124624		143.2661217588		0.0435144111		173.5571951217		0.0435977591		173.6603597409		0.0326324978		121.3887576081
1.2600		0.0465980666		142.8937037518		0.0444751789		170.7105722700		0.0447508283		171.4406190868		0.0322039987		119.7863486280
1.2800		0.0439690889		140.7513408173		0.0454459904		169.3583389569		0.0451370665		169.0504644419		0.0317884377		118.1057583553
1.3000		0.0425778998		136.6508795278		0.0459273787		167.4407331937		0.0457877118		167.6340261487		0.0305328058		117.7336153374
1.3200		0.0430298272		133.2613614406		0.0472947205		165.6275008393		0.0469782309		165.2184291358		0.0300360024		116.8766443008
1.3400		0.0437727784		131.5873021701		0.0477493864		163.2400313452		0.0477458788		162.7528876037		0.0287910829		116.6601098493
1.3600		0.0447538841		132.4834436638		0.0483816109		161.5921980884		0.0481132035		161.5456572573		0.0272990946		115.9366518658
1.3800		0.0439398636		134.4618444720		0.0496658505		159.6247463338		0.0493651291		159.0216183012		0.0254644096		115.0793843624
1.4000		0.0418845885		136.3829228034		0.0505804044		157.1798650408		0.0499572075		157.2090027429		0.0229828847		113.3715402452
1.4200		0.0385606166		136.5131839398		0.0511548981		154.9188334641		0.0511669662		154.9605234479		0.0213280800		111.0121255496
1.4400		0.0357506860		132.8574664203		0.0520964966		152.3982629514		0.0520130837		152.2885260847		0.0193666794		107.9040787157
1.4600		0.0345391817		127.1866127500		0.0527545859		150.4041451802		0.0524146836		150.0846997837		0.0177008922		106.1862462329
1.4800		0.0354755203		123.6157404211		0.0532874014		147.9585317060		0.0532439278		147.7207082231		0.0162889382		103.0509356324
1.5000		0.0367354141		123.3546736837		0.0534979583		146.0946379642		0.0537545102		145.9795174247		0.0154125269		98.1621940420
1.5200		0.0370361455		126.0259721155		0.0538219375		144.4061480721		0.0543954719		144.3147197108		0.0149891699		97.9561088158
1.5400		0.0353911111		130.2685508230		0.0553048247		142.7447780242		0.0554374153		142.4969126445		0.0145587195		96.0463302919
1.5600		0.0324511830		132.4893407828		0.0563248270		140.7802168788		0.0559826287		140.3468890767		0.0130364524		97.3298491524
1.5800		0.0287314815		133.5730437835		0.0572362119		139.5045365012		0.0561746182		138.1255774884		0.0123199794		98.7087360059
1.6000		0.0258825585		129.5655507688		0.0572152947		137.3466457444		0.0573251219		137.0426637778		0.0104713622		101.6195019449
1.6200		0.0254945638		122.9927795123		0.0585669639		134.6569476611		0.0584081259		135.0330797112		0.0083774918		107.3664762535
1.6400		0.0261263362		119.6727628396		0.0590715153		132.4940838279		0.0591836419		132.8111490473		0.0064166975		117.7828313212
1.6600		0.0271333491		121.1233095822		0.0601162259		130.7168416423		0.0600547407		130.4246439511		0.0038968405		135.2119369642
1.6800		0.0276114318		126.0612682011		0.0609412448		128.4248389392		0.0605175010		128.5842238499		0.0029071385		168.6988260341
1.7000		0.0260595119		131.3843661149		0.0616104713		126.2274286661		0.0614334763		126.7870001745		0.0034393208		-143.5328479389
1.7200		0.0233814164		135.6940714442		0.0627096074		124.8172774069		0.0621438302		124.6768005526		0.0040366369		-118.1013524000
1.7400		0.0207171924		136.4800341156		0.0628892972		122.8552956010		0.0626317469		122.3421848115		0.0056099248		-107.9613752644
1.7600		0.0186885434		133.0572643138		0.0638324044		120.3301312184		0.0637046867		120.4968556297		0.0064230997		-116.0286107631
1.7800		0.0187917959		127.9690729906		0.0642085992		118.6647984488		0.0644884981		118.4903639960		0.0070459337		-116.1141880893
1.8000		0.0197645592		126.3540113350		0.0654519132		116.4597651036		0.0652482464		116.7418246448		0.0076573435		-126.7978280518
1.8200		0.0209724961		130.8807772275		0.0658193531		114.0403773352		0.0657263058		114.3262975444		0.0084432118		-138.2003895840
1.8400		0.0217411628		137.3963146188		0.0668840734		112.3596923212		0.0668493378		112.1705503073		0.0103992507		-146.6953914785
1.8600		0.0213279063		144.0575874409		0.0673808504		110.1441187641		0.0668453405		110.4102361121		0.0126130644		-153.0455355452
1.8800		0.0202365372		149.8401608066		0.0683413451		107.5965125896		0.0680548553		108.6939288286		0.0159609284		-153.9264180970
1.9000		0.0191080757		151.1234464686		0.0688026570		106.3027718338		0.0689155574		105.9419116483		0.0190857882		-154.5975777446
1.9200		0.0190305748		149.8822420574		0.0695122198		104.3458613641		0.0693524356		104.2235092191		0.0220927551		-154.3497178182
1.9400		0.0197720867		146.9859713181		0.0703368594		102.2874790856		0.0694278152		102.2156889501		0.0243731240		-151.8686855506
1.9600		0.0215651086		147.6733929183		0.0706583739		100.4575675310		0.0701875899		100.5538512096		0.0262363118		-150.8224085515
1.9800		0.0233732771		151.7033550252		0.0712201420		98.5385034973		0.0703799890		98.1577702773		0.0273207074		-152.1343399510
2.0000		0.0250272912		154.5529907135		0.0718762935		95.7844223271		0.0717078645		96.2516669872		0.0284621049		-152.3153073675
2.0200		0.0253843197		159.3910558888		0.0717828708		94.1964705132		0.0720705697		93.7692909126		0.0293183493		-154.3284915432
2.0400		0.0254491380		160.9111820114		0.0727001989		92.0267378983		0.0726247530		91.7759041421		0.0296848818		-157.8417269750
2.0600		0.0259690987		160.2514829755		0.0734228135		90.3453125190		0.0732613081		89.9343683181		0.0304414195		-163.3385800485
2.0800		0.0270954695		157.5952901001		0.0741288744		87.7910546052		0.0740407088		88.0424654826		0.0319838210		-165.8087910625
2.1000		0.0290859697		156.9935665089		0.0743094322		85.6633304214		0.0742184582		86.0625095176		0.0338982568		-171.3008979245
2.1200		0.0310532112		156.0886117325		0.0741770889		83.8179458453		0.0747986517		83.7372509419		0.0364843284		-175.0515370545
2.1400		0.0329787749		158.7933385116		0.0754331893		82.6755245127		0.0750477023		81.9823380124		0.0393666328		-176.7864470961
2.1600		0.0342009943		160.3696009415		0.0756446006		80.7514328902		0.0753175410		80.2695649803		0.0414985053		-178.8780910760
2.1800		0.0344659052		160.9263356226		0.0755327848		78.0170054431		0.0760287429		77.9317489725		0.0438334599		-179.6808762452
2.2000		0.0348927559		159.6224745201		0.0761657891		76.3201027685		0.0757893118		76.3309674497		0.0457102256		179.0460379238
2.2200		0.0363335686		157.4668909274		0.0760799797		74.4725043673		0.0765890378		74.1812171560		0.0467418151		178.2696040001
2.2400		0.0381083105		155.5361114685		0.0771825261		71.6940035748		0.0764505132		72.6002686267		0.0473050879		176.6853581093
2.2600		0.0408752228		155.1234607396		0.0770072078		70.1369237482		0.0762772759		70.1703910939		0.0468577754		174.0584977612
2.2800		0.0435372018		155.2122349408		0.0769660649		68.4590907738		0.0770536435		69.2905758754		0.0469029510		170.4660488895
2.3000		0.0431511720		156.0578238804		0.0773757274		66.7186961824		0.0776178217		67.1260515986		0.0478681624		166.8840621926
2.3200		0.0436549536		154.9800871907		0.0778693704		64.7392685233		0.0781385545		64.6684586834		0.0486866352		163.0117943427
2.3400		0.0436066724		153.4192539221		0.0780165738		63.5639947214		0.0782191950		62.6888950070		0.0497226732		158.7226342703
2.3600		0.0436973152		150.4551978956		0.0780871229		61.2112766051		0.0778422561		60.4978611223		0.0527856621		155.1869730990
2.3800		0.0456845883		148.7096820896		0.0788941871		59.6372702885		0.0775527475		59.5171683467		0.0557542902		151.7227471336
2.4000		0.0477880781		147.4237501137		0.0788261796		57.4758528713		0.0783502729		57.9573567621		0.0588459815		149.4152490810
2.4200		0.0490437663		147.6863736029		0.0792631520		55.8472345386		0.0794597157		56.1688007957		0.0614373383		147.3435399558
2.4400		0.0487999005		148.3376301124		0.0784301866		53.7994955027		0.0795712812		53.6723313472		0.0636515580		146.4837407153
2.4600		0.0481069573		147.2348828030		0.0795567302		52.0481519060		0.0796308258		51.9085999435		0.0656770345		145.2461213866
2.4800		0.0466915806		144.2452073249		0.0796770310		50.7082768653		0.0793539459		50.4028475356		0.0664315553		143.8394640862
2.5000		0.0463740296		139.9117065015		0.0795935524		48.6704497607		0.0796339577		49.1257172229		0.0668186928		141.9979269857
2.5200		0.0474918007		136.2985478298		0.0796288310		46.9218255912		0.0810626595		47.2006926830		0.0682789811		140.6827785235
2.5400		0.0494385875		132.9050497434		0.0799358094		45.5587686653		0.0803885329		45.7036648568		0.0686736963		138.9583858881
2.5600		0.0518429178		132.2831884885		0.0800811904		43.8188083751		0.0802387169		43.6959029986		0.0690149158		136.3146179040
2.5800		0.0523681719		132.5792880255		0.0799731825		42.4540354183		0.0809714983		42.2981999139		0.0695292516		133.2948632481
2.6000		0.0511560316		132.3389302990		0.0808007691		41.7198007274		0.0816545851		40.4450979429		0.0703778425		130.6543464272
2.6200		0.0486212484		130.2950920450		0.0813016758		39.3240224204		0.0815074747		38.8294159359		0.0708785033		129.1548877007
2.6400		0.0467237428		125.1608339259		0.0822831864		37.3761890756		0.0815126429		36.7465528958		0.0723112293		127.2199123713
2.6600		0.0470455498		119.0663373686		0.0818465957		35.2107926329		0.0809831937		34.9387333219		0.0726723305		125.5951879508
2.6800		0.0501833039		114.7328542453		0.0811055954		33.9636196500		0.0805534462		33.9828036257		0.0728290482		123.7832917088
2.7000		0.0521471782		113.2971028526		0.0814803903		32.0352399302		0.0812648408		33.3454357086		0.0719990914		122.4422036262
2.7200		0.0530178795		112.8992413280		0.0820720271		30.4458333094		0.0822762101		31.0699096450		0.0709251249		121.0057681679
2.7400		0.0522437110		113.0445017058		0.0818462897		29.4779067462		0.0827892505		29.0251141989		0.0702892815		118.6430908322
2.7600		0.0490513782		111.0616686108		0.0828319750		27.8266240540		0.0822315853		27.7799533367		0.0690520068		116.0186428453
2.7800		0.0459766740		106.9164375291		0.0826775976		26.3711616763		0.0821665210		26.2569409143		0.0677856578		112.9504912464
2.8000		0.0457002360		99.7217868036		0.0829864162		24.9511822555		0.0823177493		24.9012427320		0.0672543735		109.2756315581
2.8200		0.0473479569		93.4873580432		0.0833518388		23.8586492678		0.0834122697		23.4569870005		0.0676098405		106.8788339650
2.8400		0.0508819916		90.4488894318		0.0839253401		22.1699215058		0.0833972671		22.1338051328		0.0666789550		103.7715090592
2.8600		0.0514952569		90.7555236452		0.0843055146		20.5120496525		0.0840666996		20.8314331415		0.0683788108		101.7261734698
2.8800		0.0508448143		91.5154648738		0.0843311776		19.2570236700		0.0841511443		19.5807953135		0.0689553040		100.5092568955
2.9000		0.0479692219		90.4237472457		0.0849378131		17.6822257137		0.0848101182		17.3664770108		0.0687250325		99.1020869101
2.9200		0.0445339752		85.7360481773		0.0853930510		15.8423793324		0.0851569461		16.4647140044		0.0679215015		98.9174172574
2.9400		0.0428963089		78.0545253467		0.0856737675		14.1754580687		0.0852224576		14.2203632068		0.0658173622		98.7241967416
2.9600		0.0439613341		70.8653983731		0.0862640387		13.1457846619		0.0855892681		13.0415099898		0.0636904314		98.1121460631
2.9800		0.0460623245		67.7892988121		0.0862358874		11.9660673380		0.0864157486		11.7211424023		0.0602346166		97.8678769292
3.0000		0.0486393739		65.9759181041		0.0867147438		9.8891291262		0.0873408900		10.1580184445		0.0560322307		95.8122847968
3.0200		0.0477066069		67.3801415189		0.0870219301		9.1815452786		0.0868991881		8.9781195452		0.0512612864		94.7595690494
3.0400		0.0446625116		67.0780406876		0.0870221521		7.7493301040		0.0882565687		7.7427469657		0.0470138522		91.6157313284
3.0600		0.0399662584		63.8433823044		0.0889047138		6.5438109792		0.0885185972		6.1054182750		0.0430833710		88.3738552316
3.0800		0.0370404252		55.8484205046		0.0894918109		5.0131138669		0.0886929661		4.7343742982		0.0405399808		83.9694055356
3.1000		0.0363101438		46.9348896627		0.0903628316		3.2913253111		0.0895305455		3.5445105665		0.0382126252		79.1914853458
3.1200		0.0380699317		41.5167211415		0.0906076491		2.2463551030		0.0899021192		2.4927179312		0.0362576595		75.9652129365
3.1400		0.0391944344		39.1004867872		0.0911573956		0.9615116173		0.0910839366		1.2959028341		0.0339690690		72.7879880540
3.1600		0.0377450043		39.5994656929		0.0931094852		-1.0493507309		0.0923010839		-0.9282840346		0.0326627411		71.5449427535
3.1800		0.0338539106		37.8874404827		0.0931117305		-2.4701802777		0.0929389665		-1.8275933611		0.0305411561		70.1923785232
3.2000		0.0293289546		31.8398832100		0.0942662203		-3.4707540476		0.0933118721		-3.5579242322		0.0274692865		69.5366201226
3.2200		0.0266018342		19.3274578408		0.0940076709		-4.5757753468		0.0937459200		-4.5347846009		0.0240622255		69.2406313929
3.2400		0.0273103145		4.9299576669		0.0954459681		-6.5151890925		0.0951586671		-6.1651733834		0.0193702546		69.1174319152
3.2600		0.0299005355		-2.8940713216		0.0969380537		-7.2956108196		0.0958845642		-7.4037903861		0.0150832199		68.6150002643
3.2800		0.0307825311		-6.3946866099		0.0967879766		-9.3680262758		0.0971959312		-9.1233192610		0.0107389782		65.8863978846
3.3000		0.0291050283		-8.6462483457		0.0981847252		-10.6279976467		0.0986146954		-10.5044726641		0.0063856110		61.9901806234
3.3200		0.0266367587		-13.6914551520		0.0990355839		-11.7886312953		0.0994719630		-12.3967772850		0.0026603622		47.0209817704
3.3400		0.0241109987		-28.6867851674		0.1001142695		-13.7614367360		0.1006939224		-13.4997838606		0.0019864890		-60.5244332706
3.3600		0.0250207536		-44.2093396359		0.1009822145		-15.1155962085		0.1012981004		-15.2797182020		0.0047864479		-104.2743573233
3.3800		0.0296281853		-55.0034440861		0.1023877070		-16.2351014424		0.1027885011		-16.7509765348		0.0081074279		-111.4947799582
3.4000		0.0336483756		-60.4517097536		0.1042555744		-18.1644619566		0.1038765907		-18.1887615342		0.0113933795		-118.7210742351
3.4200		0.0356995615		-63.2788733361		0.1047512615		-19.7784602916		0.1050909506		-19.7649060131		0.0149148743		-127.1468722765
3.4400		0.0356697609		-66.9172717612		0.1061741923		-21.4451358232		0.1062450608		-20.9403268399		0.0189781363		-130.9329588403
3.4600		0.0358458716		-74.9625395980		0.1077907286		-22.9190292380		0.1068800687		-23.0766852345		0.0237191305		-135.5017215154
3.4800		0.0364362071		-84.7197621545		0.1094185773		-24.5904275505		0.1089299147		-24.7611270388		0.0280105671		-137.1468309425
3.5000		0.0406913135		-94.1879860385		0.1099253344		-26.4494551268		0.1094708770		-26.0355597485		0.0327249322		-138.6814927819
3.5200		0.0467471022		-99.8316602297		0.1106666517		-27.9024043852		0.1116544884		-27.8599232894		0.0372610347		-140.5042298311
3.5400		0.0515017696		-102.0173907126		0.1125643179		-29.3518307230		0.1130125162		-30.0250659941		0.0409766697		-141.6492399654
3.5600		0.0542301090		-104.7439677698		0.1131387861		-31.0465831506		0.1125843910		-31.1348880786		0.0445516112		-143.4077830849
3.5800		0.0555736578		-108.4809642873		0.1154130092		-33.2420329892		0.1143110757		-33.2085475645		0.0476732226		-145.8470765572
3.6000		0.0573737227		-112.8979623426		0.1168848904		-35.1833561388		0.1148334291		-34.8831850976		0.0506050795		-148.8658796232
3.6200		0.0606775177		-118.4598232234		0.1178926156		-36.6433443927		0.1171824233		-36.3095868904		0.0530021755		-151.8173900683
3.6400		0.0651072752		-122.8455581536		0.1194973860		-38.7420764186		0.1177039421		-38.4124347078		0.0559443746		-155.7173865070
3.6600		0.0697661525		-125.5602552369		0.1198602467		-40.1744653301		0.1204746303		-39.9660802622		0.0594367008		-159.6552736670
3.6800		0.0738297824		-127.2541597661		0.1213940363		-41.8703811932		0.1214346116		-41.9886836996		0.0632240579		-164.1415066605
3.7000		0.0748187402		-130.2974230767		0.1237932855		-43.5553936126		0.1223428011		-43.9337536686		0.0681801024		-167.2747386552
3.7200		0.0753011564		-134.7742369092		0.1244200239		-45.9192389169		0.1262728237		-45.5054911007		0.0733608955		-170.8986612443
3.7400		0.0775574195		-139.7960755512		0.1260637613		-48.0062140857		0.1245817438		-47.3514966773		0.0781172474		-173.1314465127
3.7600		0.0810837377		-144.6230755349		0.1273279815		-49.4919863933		0.1263794841		-49.0389156286		0.0827141142		-175.8080135347
3.7800		0.0866169337		-147.9863268304		0.1310667404		-51.4969804074		0.1288609097		-51.1428429671		0.0876076827		-178.1609963387
3.8000		0.0925913931		-150.8445122824		0.1298481761		-53.5525927070		0.1308769718		-53.1972250877		0.0919397069		-179.6529155901
3.8200		0.0952078146		-153.5622509655		0.1301804536		-55.9737307097		0.1322081322		-55.5987616268		0.0956844030		178.0123112926
3.8400		0.0967466078		-155.7957425583		0.1311528495		-57.9884403180		0.1325865582		-57.3665974547		0.0986409987		175.9950554854
3.8600		0.0965210325		-160.0697105968		0.1334074044		-59.6265669589		0.1337724535		-59.8712927383		0.1018049099		173.3316780084
3.8800		0.0983859042		-165.4578194451		0.1355961822		-61.2906120365		0.1341954383		-60.8898649264		0.1042217114		170.9234689872
3.9000		0.1043881988		-170.4437062236		0.1362913275		-63.7411841117		0.1355441025		-63.1270177481		0.1069188472		168.1219729256
3.9200		0.1113624076		-173.3572418212		0.1370593239		-65.9646453988		0.1377455417		-64.5604545044		0.1102816629		165.4066453566
3.9400		0.1184711125		-174.8680385549		0.1386349038		-67.3934841700		0.1390471577		-66.5900704398		0.1122934302		162.9217452982
3.9600		0.1211107816		-176.1820843507		0.1368726056		-69.9418499025		0.1398409421		-69.4867587241		0.1155677940		159.7616012924
3.9800		0.1228456999		-178.1795807366		0.1384284321		-71.2874382404		0.1398211857		-71.8923030864		0.1183483098		157.2088144128
4.0000		0.1213375159		178.4993414685		0.1392965995		-73.1282101329		0.1385791915		-72.8798714665		0.1211807518		154.8531075248
4.0200		0.1227746441		173.8267151711		0.1412966156		-74.9049582372		0.1405092390		-74.6990282689		0.1236976435		151.4147838258
4.0400		0.1271818432		168.6331077090		0.1419302482		-77.0372265420		0.1447293172		-76.7901047655		0.1260694399		148.4160170037
4.0600		0.1344034821		165.2372106205		0.1442769807		-79.5499128905		0.1453704162		-78.4777566971		0.1280149782		146.7394271490
4.0800		0.1414891136		163.2134733125		0.1453290489		-81.6780660254		0.1456593839		-81.1780763601		0.1299476472		143.4029270619
