CITIFILE A.01.01
#Momentum: B.09.20.456 (*) 372.600 Nov 12 2011 
#Momentum Date and Time: Thu Dec 19 12:37:14 2013

NAME Momentum.SP

#  mode: MW    project: proj    reference: S_50

CONSTANT NBR_OF_PORTS 2

CONSTANT NORMALIZATION 1

VAR freq MAG 12

DATA S[1,1] RI
DATA S[1,2] RI
DATA S[2,1] RI
DATA S[2,2] RI
DATA S_50[1,1] RI
DATA S_50[1,2] RI
DATA S_50[2,1] RI
DATA S_50[2,2] RI
DATA S_Z0[1,1] RI
DATA S_Z0[1,2] RI
DATA S_Z0[2,1] RI
DATA S_Z0[2,2] RI
DATA GAMMA[1] RI
DATA GAMMA[2] RI
DATA Z0[1] RI
DATA Z0[2] RI
DATA PORTZ[1] RI
DATA PORTZ[2] RI

VAR_LIST_BEGIN
	 2000000000
	 2166666667
	 2250000000
	 2291666667
	 2333333333
	 2370370370
	 2388888889
	 2435185185
	 2473765432
	 2666666667
	 2833333334
	 3000000000
VAR_LIST_END

BEGIN
	-0.527206763,	 0.839179346
	-0.120092164,	 0.980461691
	 0.168267826,	 0.96677235
	 0.375274042,	 0.893752871
	 0.678469442,	 0.583741233
	 0.133571733,	 0.145441523
	 0.18887942,	 0.179383671
	-0.0466144943,	 0.42309647
	-0.541395272,	 0.689645026
	 0.463310899,	 0.874960377
	 0.769651072,	 0.625136594
	 0.939479591,	 0.318744032
END
BEGIN
	-0.000448720487,	 0.000396057867
	-0.00303018124,	 0.00120633935
	-0.0120162193,	 0.00623792011
	-0.0299897068,	 0.0234682438
	-0.0684186581,	 0.163116479
	 0.75174703,	 0.0518762277
	 0.496907588,	-0.63785987
	-0.764640121,	-0.030223693
	 0.177957406,	 0.204554273
	 0.00373512473,	-0.0020105377
	 0.000842760732,	-0.00140335544
	 5.78926838e-005,	-0.00128026067
END
BEGIN
	-0.000448720487,	 0.000396057867
	-0.00303018124,	 0.00120633935
	-0.0120162193,	 0.00623792011
	-0.0299897068,	 0.0234682438
	-0.0684186581,	 0.163116479
	 0.75174703,	 0.0518762277
	 0.496907588,	-0.63785987
	-0.764640121,	-0.030223693
	 0.177957406,	 0.204554273
	 0.00373512473,	-0.0020105377
	 0.000842760732,	-0.00140335544
	 5.78926838e-005,	-0.00128026067
END
BEGIN
	-0.52717452,	 0.83917633
	-0.120064887,	 0.980447967
	 0.168285154,	 0.966760716
	 0.375283535,	 0.89375577
	 0.678499766,	 0.583811375
	 0.13377652,	 0.145308461
	 0.188898384,	 0.179236731
	-0.0464941732,	 0.422966681
	-0.541505241,	 0.689635006
	 0.463320459,	 0.87493483
	 0.76964868,	 0.625106616
	 0.939465759,	 0.318718703
END
BEGIN
	-0.527206763,	 0.839179346
	-0.120092164,	 0.980461691
	 0.168267826,	 0.96677235
	 0.375274042,	 0.893752871
	 0.678469442,	 0.583741233
	 0.133571733,	 0.145441523
	 0.18887942,	 0.179383671
	-0.0466144943,	 0.42309647
	-0.541395272,	 0.689645026
	 0.463310899,	 0.874960377
	 0.769651072,	 0.625136594
	 0.939479591,	 0.318744032
END
BEGIN
	-0.000448720487,	 0.000396057867
	-0.00303018124,	 0.00120633935
	-0.0120162193,	 0.00623792011
	-0.0299897068,	 0.0234682438
	-0.0684186581,	 0.163116479
	 0.75174703,	 0.0518762277
	 0.496907588,	-0.63785987
	-0.764640121,	-0.030223693
	 0.177957406,	 0.204554273
	 0.00373512473,	-0.0020105377
	 0.000842760732,	-0.00140335544
	 5.78926838e-005,	-0.00128026067
END
BEGIN
	-0.000448720487,	 0.000396057867
	-0.00303018124,	 0.00120633935
	-0.0120162193,	 0.00623792011
	-0.0299897068,	 0.0234682438
	-0.0684186581,	 0.163116479
	 0.75174703,	 0.0518762277
	 0.496907588,	-0.63785987
	-0.764640121,	-0.030223693
	 0.177957406,	 0.204554273
	 0.00373512473,	-0.0020105377
	 0.000842760732,	-0.00140335544
	 5.78926838e-005,	-0.00128026067
END
BEGIN
	-0.52717452,	 0.83917633
	-0.120064887,	 0.980447967
	 0.168285154,	 0.966760716
	 0.375283535,	 0.89375577
	 0.678499766,	 0.583811375
	 0.13377652,	 0.145308461
	 0.188898384,	 0.179236731
	-0.0464941732,	 0.422966681
	-0.541505241,	 0.689635006
	 0.463320459,	 0.87493483
	 0.76964868,	 0.625106616
	 0.939465759,	 0.318718703
END
BEGIN
	-0.575983904,	 0.80688505
	-0.187817924,	 0.969888847
	 0.100911881,	 0.975903963
	 0.316011612,	 0.915514295
	 0.645793173,	 0.610351433
	 0.118316834,	 0.149028634
	 0.148566638,	 0.158869967
	-0.0675843153,	 0.422907798
	-0.582305136,	 0.664816817
	 0.407539736,	 0.901943336
	 0.740388084,	 0.658840048
	 0.931381585,	 0.340127653
END
BEGIN
	-0.000453887665,	 0.000355638489
	-0.00307587257,	 0.000986315321
	-0.0125404453,	 0.0054628488
	-0.0321998047,	 0.022068503
	-0.0787068749,	 0.167727869
	 0.757808912,	 0.0606838198
	 0.510837773,	-0.639116648
	-0.760678317,	-0.0531335709
	 0.161580804,	 0.20492098
	 0.00397351324,	-0.00183112095
	 0.000953625159,	-0.00143836433
	 9.30105063e-005,	-0.00136457991
END
BEGIN
	-0.000453887665,	 0.000355638489
	-0.00307587257,	 0.000986315321
	-0.0125404453,	 0.0054628488
	-0.0321998047,	 0.022068503
	-0.0787068749,	 0.167727869
	 0.757808912,	 0.0606838198
	 0.510837773,	-0.639116648
	-0.760678317,	-0.0531335709
	 0.161580804,	 0.20492098
	 0.00397351324,	-0.00183112095
	 0.000953625159,	-0.00143836433
	 9.30105063e-005,	-0.00136457991
END
BEGIN
	-0.575958881,	 0.806879627
	-0.187798924,	 0.969875439
	 0.100921095,	 0.975894344
	 0.316013036,	 0.915520577
	 0.645817506,	 0.610429953
	 0.118517557,	 0.148896407
	 0.148583704,	 0.158724784
	-0.0674687158,	 0.422781507
	-0.582415464,	 0.664798151
	 0.407543537,	 0.901921072
	 0.74038285,	 0.658812905
	 0.93136629,	 0.340103239
END
BEGIN
	 0.0959360869,	 69.4093151
	 0.100426388,	 75.2025556
	 0.102627228,	 78.1000818
	 0.103716672,	 79.5490828
	 0.104798797,	 80.998247
	 0.10575454,	 82.2865329
	 0.106230242,	 82.930726
	 0.107413171,	 84.5413574
	 0.10839204,	 85.8837154
	 0.1131938,	 92.59784
	 0.117265563,	 98.4016987
	 0.121241798,	 104.208606
END
BEGIN
	 0.0959363132,	 69.4092698
	 0.100426622,	 75.2025064
	 0.102627467,	 78.1000307
	 0.103716912,	 79.5490307
	 0.104799039,	 80.998194
	 0.105754784,	 82.2864789
	 0.106230487,	 82.9306716
	 0.107413418,	 84.541302
	 0.108392288,	 85.883659
	 0.113194056,	 92.597779
	 0.117265826,	 98.4016338
	 0.121242067,	 104.208537
END
BEGIN
	 53.576142709999999 ,	 -0.054980232779999999 
	 53.576430899999998 ,	 -0.052462287269999998 
	 53.576789089999998 ,	 -0.051311504709999997 
	 53.57702141 ,	 -0.050759784879999999 
	 53.577289210000004 ,	 -0.050222717399999998 
	 53.577557030000001 ,	 -0.049756999320000002 
	 53.577701449999999 ,	 -0.049528093010000003 
	 53.57809314 ,	 -0.048966873219999998 
	 53.578452990000002 ,	 -0.048510739630000001 
	 53.580704660000002 ,	 -0.046372067570000002 
	 53.583156299999999 ,	 -0.044713787159999997 
	 53.586128240000001 ,	 -0.043187935439999998 
END
BEGIN
	 53.576641379999998 ,	 -0.054980983529999999 
	 53.576929569999997 ,	 -0.052463005469999997 
	 53.577287769999998 ,	 -0.051312208030000001 
	 53.57752009 ,	 -0.050760481070000002 
	 53.577787890000003 ,	 -0.050223406650000003 
	 53.578055710000001 ,	 -0.049757682550000001 
	 53.578200129999999 ,	 -0.049528773290000001 
	 53.57859182 ,	 -0.048967546250000001 
	 53.578951670000002 ,	 -0.048511406770000001 
	 53.581203360000003 ,	 -0.046372707040000002 
	 53.583655020000002 ,	 -0.04471440518 
	 53.586626989999999 ,	 -0.04318853374 
END
BEGIN
	 50 ,	 0 
	 50 ,	 0 
	 50 ,	 0 
	 50 ,	 0 
	 50 ,	 0 
	 50 ,	 0 
	 50 ,	 0 
	 50 ,	 0 
	 50 ,	 0 
	 50 ,	 0 
	 50 ,	 0 
	 50 ,	 0 
END
BEGIN
	 50 ,	 0 
	 50 ,	 0 
	 50 ,	 0 
	 50 ,	 0 
	 50 ,	 0 
	 50 ,	 0 
	 50 ,	 0 
	 50 ,	 0 
	 50 ,	 0 
	 50 ,	 0 
	 50 ,	 0 
	 50 ,	 0 
END
