CITIFILE A.01.01
#Momentum: B.09.20.456 (*) 372.600 Nov 12 2011 
#Momentum Date and Time: Thu Dec 19 14:45:31 2013

NAME Momentum.SP

#  mode: MW    project: proj    reference: S_50

CONSTANT NBR_OF_PORTS 2

CONSTANT NORMALIZATION 1

VAR freq MAG 15

DATA S[1,1] RI
DATA S[1,2] RI
DATA S[2,1] RI
DATA S[2,2] RI
DATA S_50[1,1] RI
DATA S_50[1,2] RI
DATA S_50[2,1] RI
DATA S_50[2,2] RI
DATA S_Z0[1,1] RI
DATA S_Z0[1,2] RI
DATA S_Z0[2,1] RI
DATA S_Z0[2,2] RI
DATA GAMMA[1] RI
DATA GAMMA[2] RI
DATA Z0[1] RI
DATA Z0[2] RI
DATA PORTZ[1] RI
DATA PORTZ[2] RI

VAR_LIST_BEGIN
	 1000000000
	 1500000000
	 2000000000
	 2347222223
	 2405092593
	 2416666667
	 2435185185
	 2472222222
	 2490740741
	 2500000000
	 2750000000
	 3000000000
	 3500000000
	 3833333333
	 4000000000
VAR_LIST_END

BEGIN
	-0.301371355,	-0.951192106
	-0.974042301,	-0.208745945
	-0.612714731,	 0.779634882
	 0.350779726,	 0.902667131
	 0.334464795,	 0.145987359
	 0.15014952,	 0.378109715
	 0.278465026,	 0.25899687
	-0.0754413738,	 0.55592051
	-0.0886434045,	 0.19039574
	-0.493507509,	 0.404119511
	 0.607294065,	 0.783220214
	 0.923839934,	 0.361543908
	 0.8130498,	-0.569939026
	 0.297888527,	-0.947240592
	-0.0293787189,	-0.992297095
END
BEGIN
	-6.37385697e-005,	-6.91423122e-005
	-0.000145323969,	 0.000201137023
	-0.000147283176,	 0.000450239737
	-0.0291264852,	 0.0232679309
	 0.400716469,	 0.440554203
	 0.686395431,	-0.0273621611
	 0.400886152,	-0.638601892
	-0.675750076,	-0.104969356
	-0.386642856,	 0.624528151
	 0.138961656,	 0.48691178
	 0.00162465603,	-0.00140769368
	 0.000133180539,	-0.00118843465
	-0.00124679506,	-0.000463452724
	-0.00127190289,	 0.000696613065
	-0.000914345496,	 0.00119671619
END
BEGIN
	-6.37385697e-005,	-6.91423122e-005
	-0.000145323969,	 0.000201137023
	-0.000147283176,	 0.000450239737
	-0.0291264852,	 0.0232679309
	 0.400716469,	 0.440554203
	 0.686395431,	-0.0273621611
	 0.400886152,	-0.638601892
	-0.675750076,	-0.104969356
	-0.386642856,	 0.624528151
	 0.138961656,	 0.48691178
	 0.00162465603,	-0.00140769368
	 0.000133180539,	-0.00118843465
	-0.00124679506,	-0.000463452724
	-0.00127190289,	 0.000696613065
	-0.000914345496,	 0.00119671619
END
BEGIN
	-0.297587891,	-0.952382913
	-0.972035534,	-0.217849971
	-0.621177348,	 0.772828605
	 0.34563,	 0.904378223
	 0.330747784,	 0.142074814
	 0.144746061,	 0.377322957
	 0.277504761,	 0.257586438
	-0.0828233533,	 0.55406524
	-0.0902171174,	 0.187235333
	-0.498732586,	 0.39677973
	 0.603599562,	 0.785958415
	 0.923224685,	 0.362936238
	 0.813600865,	-0.569149859
	 0.302780183,	-0.945724647
	-0.0210240625,	-0.992557559
END
BEGIN
	-0.301371355,	-0.951192106
	-0.974042301,	-0.208745945
	-0.612714731,	 0.779634882
	 0.350779726,	 0.902667131
	 0.334464795,	 0.145987359
	 0.15014952,	 0.378109715
	 0.278465026,	 0.25899687
	-0.0754413738,	 0.55592051
	-0.0886434045,	 0.19039574
	-0.493507509,	 0.404119511
	 0.607294065,	 0.783220214
	 0.923839934,	 0.361543908
	 0.8130498,	-0.569939026
	 0.297888527,	-0.947240592
	-0.0293787189,	-0.992297095
END
BEGIN
	-6.37385697e-005,	-6.91423122e-005
	-0.000145323969,	 0.000201137023
	-0.000147283176,	 0.000450239737
	-0.0291264852,	 0.0232679309
	 0.400716469,	 0.440554203
	 0.686395431,	-0.0273621611
	 0.400886152,	-0.638601892
	-0.675750076,	-0.104969356
	-0.386642856,	 0.624528151
	 0.138961656,	 0.48691178
	 0.00162465603,	-0.00140769368
	 0.000133180539,	-0.00118843465
	-0.00124679506,	-0.000463452724
	-0.00127190289,	 0.000696613065
	-0.000914345496,	 0.00119671619
END
BEGIN
	-6.37385697e-005,	-6.91423122e-005
	-0.000145323969,	 0.000201137023
	-0.000147283176,	 0.000450239737
	-0.0291264852,	 0.0232679309
	 0.400716469,	 0.440554203
	 0.686395431,	-0.0273621611
	 0.400886152,	-0.638601892
	-0.675750076,	-0.104969356
	-0.386642856,	 0.624528151
	 0.138961656,	 0.48691178
	 0.00162465603,	-0.00140769368
	 0.000133180539,	-0.00118843465
	-0.00124679506,	-0.000463452724
	-0.00127190289,	 0.000696613065
	-0.000914345496,	 0.00119671619
END
BEGIN
	-0.297587891,	-0.952382913
	-0.972035534,	-0.217849971
	-0.621177348,	 0.772828605
	 0.34563,	 0.904378223
	 0.330747784,	 0.142074814
	 0.144746061,	 0.377322957
	 0.277504761,	 0.257586438
	-0.0828233533,	 0.55406524
	-0.0902171174,	 0.187235333
	-0.498732586,	 0.39677973
	 0.603599562,	 0.785958415
	 0.923224685,	 0.362936238
	 0.813600865,	-0.569149859
	 0.302780183,	-0.945724647
	-0.0210240625,	-0.992557559
END
BEGIN
	-0.360970228,	-0.930267801
	-0.976646716,	-0.197474694
	-0.654770198,	 0.745138053
	 0.290396618,	 0.92303632
	 0.301338091,	 0.161637416
	 0.127416703,	 0.380370025
	 0.235198414,	 0.245178634
	-0.105810268,	 0.557291179
	-0.132357215,	 0.171875357
	-0.532368222,	 0.393390432
	 0.562132972,	 0.815781627
	 0.913591103,	 0.385358959
	 0.788756679,	-0.602446492
	 0.234171611,	-0.964838757
	-0.0976112443,	-0.987958946
END
BEGIN
	-6.63448715e-005,	-6.34143303e-005
	-0.00013357955,	 0.000189581521
	-0.000164185979,	 0.000422900061
	-0.0312579484,	 0.021857261
	 0.404584546,	 0.454887715
	 0.69362389,	-0.00890684741
	 0.419844899,	-0.64268436
	-0.667075615,	-0.130742606
	-0.392045331,	 0.614623827
	 0.120584711,	 0.473693976
	 0.00177188029,	-0.00137001851
	 0.00017483591,	-0.00126278597
	-0.00133638579,	-0.000435957964
	-0.00124540238,	 0.000793242607
	-0.000826405487,	 0.00125035136
END
BEGIN
	-6.63448715e-005,	-6.34143303e-005
	-0.00013357955,	 0.000189581521
	-0.000164185979,	 0.000422900061
	-0.0312579484,	 0.021857261
	 0.404584546,	 0.454887715
	 0.69362389,	-0.00890684741
	 0.419844899,	-0.64268436
	-0.667075615,	-0.130742606
	-0.392045331,	 0.614623827
	 0.120584711,	 0.473693976
	 0.00177188029,	-0.00137001851
	 0.00017483591,	-0.00126278597
	-0.00133638579,	-0.000435957964
	-0.00124540238,	 0.000793242607
	-0.000826405487,	 0.00125035136
END
BEGIN
	-0.357366624,	-0.931657844
	-0.974872702,	-0.206003187
	-0.662514761,	 0.73818621
	 0.285018573,	 0.924449893
	 0.297579061,	 0.157594501
	 0.121976166,	 0.379429015
	 0.234243311,	 0.243728235
	-0.113077756,	 0.555157759
	-0.133880446,	 0.168719959
	-0.537209588,	 0.38616059
	 0.558124266,	 0.818419768
	 0.91289543,	 0.386828963
	 0.789368935,	-0.601641214
	 0.239234629,	-0.963629526
	-0.0893432035,	-0.988784973
END
BEGIN
	 0.0651210628,	 34.6942353
	 0.0815649297,	 52.0431006
	 0.0959407409,	 69.4092829
	 0.105154799,	 81.4813638
	 0.106644528,	 83.4944289
	 0.106940835,	 83.897081
	 0.107413791,	 84.5413518
	 0.108355508,	 85.8299961
	 0.10882427,	 86.4743701
	 0.109058126,	 86.7965702
	 0.115240057,	 95.4994141
	 0.121269385,	 104.208323
	 0.132790311,	 121.647145
	 0.140167444,	 133.289029
	 0.143777714,	 139.114967
END
BEGIN
	 0.0651212278,	 34.6942129
	 0.0815651286,	 52.0430669
	 0.0959409672,	 69.4092376
	 0.105155041,	 81.4813104
	 0.106644773,	 83.4943741
	 0.106941081,	 83.8970259
	 0.107414038,	 84.5412963
	 0.108355757,	 85.8299397
	 0.108824518,	 86.4743133
	 0.109058375,	 86.7965132
	 0.115240317,	 95.4993512
	 0.121269654,	 104.208254
	 0.132790598,	 121.647064
	 0.140167741,	 133.28894
	 0.143778016,	 139.114873
END
BEGIN
	 53.591220839999998 ,	 -0.081577649520000003 
	 53.579236280000003 ,	 -0.06493443837 
	 53.57612949 ,	 -0.054983822369999998 
	 53.577395439999997 ,	 -0.050044794019999998 
	 53.577837389999999 ,	 -0.04932940635 
	 53.577933860000002 ,	 -0.049189346660000001 
	 53.57809383 ,	 -0.048967267830000001 
	 53.578434450000003 ,	 -0.048530353900000003 
	 53.578615110000001 ,	 -0.048315410929999997 
	 53.578708020000001 ,	 -0.048208795140000003 
	 53.581868329999999 ,	 -0.045523989500000001 
	 53.586079980000001 ,	 -0.043202137289999998 
	 53.597812019999999 ,	 -0.039300792170000001 
	 53.607935429999998 ,	 -0.037132537399999999 
	 53.613666780000003 ,	 -0.036150655390000001 
END
BEGIN
	 53.591719670000003 ,	 -0.081578743869999998 
	 53.579734989999999 ,	 -0.064935317770000001 
	 53.576628159999999 ,	 -0.054984573180000003 
	 53.577894120000003 ,	 -0.050045480949999999 
	 53.578336069999999 ,	 -0.049330084029999999 
	 53.578432550000002 ,	 -0.049190022530000002 
	 53.57859251 ,	 -0.048967940830000001 
	 53.578933139999997 ,	 -0.048531021260000001 
	 53.579113800000002 ,	 -0.048316075510000001 
	 53.579206710000001 ,	 -0.048209458339999997 
	 53.582367040000001 ,	 -0.045524618009999997 
	 53.586578719999999 ,	 -0.04320273577 
	 53.598310849999997 ,	 -0.039301340210000001 
	 53.608434330000001 ,	 -0.037133057390000002 
	 53.614165720000003 ,	 -0.036151162680000001 
END
BEGIN
	 50 ,	 0 
	 50 ,	 0 
	 50 ,	 0 
	 50 ,	 0 
	 50 ,	 0 
	 50 ,	 0 
	 50 ,	 0 
	 50 ,	 0 
	 50 ,	 0 
	 50 ,	 0 
	 50 ,	 0 
	 50 ,	 0 
	 50 ,	 0 
	 50 ,	 0 
	 50 ,	 0 
END
BEGIN
	 50 ,	 0 
	 50 ,	 0 
	 50 ,	 0 
	 50 ,	 0 
	 50 ,	 0 
	 50 ,	 0 
	 50 ,	 0 
	 50 ,	 0 
	 50 ,	 0 
	 50 ,	 0 
	 50 ,	 0 
	 50 ,	 0 
	 50 ,	 0 
	 50 ,	 0 
	 50 ,	 0 
END
