CITIFILE A.01.01
#Momentum: B.09.20.456 (*) 372.600 Nov 12 2011 
#Momentum Date and Time: Thu Dec 19 14:45:13 2013

NAME PortSet1/TwoP0_Dsolver_data/first_odd_mode_is_1/most_even_mode_is_1/PMLG4/LS0

CONSTANT NBR_OF_PORTS 2

VAR freq MAG 11

DATA GAMMA_1[1] RI
DATA Z0_1[1,1] RI
DATA LAMBADAI_1[1,1] RI
DATA Zcir_1[1,1] RI
DATA Ycir_1[1,1] RI

VAR_LIST_BEGIN
	 1000000000
	 1010000000
	 1020000000
	 1030000000
	 1332078124
	 1629075640
	 1926073155
	 2223070670
	 2770520017
	 3581647324
	 4000000000
VAR_LIST_END

BEGIN
	 0.06512106284,	 34.69423528
	 0.06547824152,	 35.04108315
	 0.06583398329,	 35.38793552
	 0.06618830989,	 35.73479245
	 0.07631448801,	 46.21501906
	 0.08541665951,	 56.52446643
	 0.09390238868,	 66.84041697
	 0.1019127728,	 77.16372266
	 0.1157361464,	 96.21405093
	 0.1346019033,	 124.4977143
	 0.1437777141,	 139.1149667
END
BEGIN
	 53.591220833976315 ,	 -0.08157764950282563 
	 53.590852961817056 ,	 -0.081127158159074966 
	 53.59049202867655 ,	 -0.080683301546394304 
	 53.590137903082358 ,	 -0.080245918967728744 
	 53.582080661042433 ,	 -0.069451200247870715 
	 53.57784319593037 ,	 -0.061917966086037786 
	 53.576209827368935 ,	 -0.056201683880867458 
	 53.576674705809751 ,	 -0.05167179203501384 
	 53.582183507328757 ,	 -0.045318541379572655 
	 53.600149519945042 ,	 -0.03873519335139898 
	 53.613666778242823 ,	 -0.03615065538922111 
END
BEGIN
	 0.06512106284,	 34.69423528
	 0.06547824152,	 35.04108315
	 0.06583398329,	 35.38793552
	 0.06618830989,	 35.73479245
	 0.07631448801,	 46.21501906
	 0.08541665951,	 56.52446643
	 0.09390238868,	 66.84041697
	 0.1019127728,	 77.16372266
	 0.1157361464,	 96.21405093
	 0.1346019033,	 124.4977143
	 0.1437777141,	 139.1149667
END
BEGIN
	 0.01677643214,	 7.854874178e-010
	 0.01686038312,	 7.854799305e-010
	 0.01694392488,	 7.854726856e-010
	 0.01702706362,	 7.854656787e-010
	 0.01937400923,	 7.853469985e-010
	 0.02143793309,	 7.853607526e-010
	 0.02332564308,	 7.854656962e-010
	 0.02507718026,	 7.856418473e-010
	 0.02803510634,	 7.861160752e-010
	 0.03195156603,	 7.871069077e-010
	 0.03381078037,	 7.877321607e-010
END
BEGIN
	 0.08652693908,	 3.881634711e-008
	 0.08739495744,	 3.881650879e-008
	 0.08826304782,	 3.881667243e-008
	 0.0891312106,	 3.881683799e-008
	 0.1153924683,	 3.882261865e-008
	 0.14128563,	 3.882942265e-008
	 0.1672586409,	 3.88369671e-008
	 0.1933167845,	 3.884499377e-008
	 0.2415852505,	 3.8860438e-008
	 0.313691669,	 3.888332803e-008
	 0.3511635101,	 3.889459189e-008
END
CITIFILE A.01.01
NAME PortSet2/TwoP0_Dsolver_data/first_odd_mode_is_1/most_even_mode_is_1/PMLG4/LS0

VAR freq MAG 11

DATA GAMMA_2[1] RI
DATA Z0_2[1,1] RI
DATA LAMBADAI_2[1,1] RI
DATA Zcir_2[1,1] RI
DATA Ycir_2[1,1] RI

VAR_LIST_BEGIN
	 1000000000
	 1010000000
	 1020000000
	 1030000000
	 1332078209
	 1629075728
	 1926073246
	 2223070765
	 2770520131
	 3581647450
	 4000000000
VAR_LIST_END

BEGIN
	 0.06512122776,	 34.69421293
	 0.06547840721,	 35.04106058
	 0.06583414975,	 35.38791272
	 0.06618847711,	 35.73476942
	 0.0763146791,	 46.2149921
	 0.0854168686,	 56.52443278
	 0.09390261377,	 66.84037656
	 0.1019130123,	 77.16367543
	 0.1157364096,	 96.21399144
	 0.1346021953,	 124.4976356
	 0.143778016,	 139.1148733
END
BEGIN
	 53.591719672012864 ,	 -0.081578743875872856 
	 53.59135179559707 ,	 -0.081128246714823118 
	 53.590990858289146 ,	 -0.08068438437045776 
	 53.590636728613774 ,	 -0.080246996143622087 
	 53.582579394532324 ,	 -0.069452135497980558 
	 53.578341884889134 ,	 -0.061918804584597156 
	 53.576708499293076 ,	 -0.056202448874588425 
	 53.577173380420646 ,	 -0.051672498726404906 
	 53.582682225186993 ,	 -0.045319166100628326 
	 53.600648369646493 ,	 -0.038735733216808781 
	 53.614165717425863 ,	 -0.036151162677725369 
END
BEGIN
	 0.06512122776,	 34.69421293
	 0.06547840721,	 35.04106058
	 0.06583414975,	 35.38791272
	 0.06618847711,	 35.73476942
	 0.0763146791,	 46.2149921
	 0.0854168686,	 56.52443278
	 0.09390261377,	 66.84037656
	 0.1019130123,	 77.16367543
	 0.1157364096,	 96.21399144
	 0.1346021953,	 124.4976356
	 0.143778016,	 139.1148733
END
BEGIN
	 0.01677663777,	 7.854942232e-010
	 0.01686058978,	 7.854867357e-010
	 0.01694413256,	 7.854794907e-010
	 0.01702727231,	 7.854724837e-010
	 0.0193742472,	 7.853538002e-010
	 0.02143819617,	 7.853675525e-010
	 0.02332592909,	 7.85472495e-010
	 0.02507748749,	 7.856486456e-010
	 0.02803544938,	 7.861228736e-010
	 0.03195195613,	 7.871137081e-010
	 0.03381119212,	 7.877389626e-010
END
BEGIN
	 0.08652600753,	 3.88159608e-008
	 0.08739401652,	 3.881612248e-008
	 0.08826209752,	 3.881628611e-008
	 0.08913025093,	 3.881645166e-008
	 0.1153912322,	 3.882223218e-008
	 0.1412841137,	 3.882903602e-008
	 0.167256843,	 3.88365803e-008
	 0.1933147034,	 3.884460679e-008
	 0.2415826444,	 3.886005069e-008
	 0.3136882735,	 3.888294021e-008
	 0.3511596908,	 3.889420382e-008
END
