CITIFILE A.01.01
#Momentum: B.09.20.456 (*) 372.600 Nov 12 2011 
#Momentum Date and Time: Thu Dec 19 12:37:00 2013

NAME PortSet1/TwoP0_Dsolver_data/first_odd_mode_is_1/most_even_mode_is_1/PMLG4/LS0

CONSTANT NBR_OF_PORTS 2

VAR freq MAG 6

DATA GAMMA_1[1] RI
DATA Z0_1[1,1] RI
DATA LAMBADAI_1[1,1] RI
DATA Zcir_1[1,1] RI
DATA Ycir_1[1,1] RI

VAR_LIST_BEGIN
	 2000000000
	 2020000000
	 2040000000
	 2060000000
	 2659890370
	 3000000000
VAR_LIST_END

BEGIN
	 0.09593608691,	 69.40931513
	 0.09648156885,	 70.10437895
	 0.09702506628,	 70.79947721
	 0.09756661066,	 71.49461021
	 0.1130262308,	 92.36192979
	 0.1212417978,	 104.2086062
END
BEGIN
	 53.576142708913288 ,	 -0.054980232773647719 
	 53.576146057157402 ,	 -0.054661421636597901 
	 53.576158363530517 ,	 -0.054347305720565654 
	 53.576179584159775 ,	 -0.054037771724816663 
	 53.580615995555299 ,	 -0.046442649997180896 
	 53.586128242393642 ,	 -0.043187935440110917 
END
BEGIN
	 0.09593608691,	 69.40931513
	 0.09648156885,	 70.10437895
	 0.09702506628,	 70.79947721
	 0.09756661066,	 71.49461021
	 0.1130262308,	 92.36192979
	 0.1212417978,	 104.2086062
END
BEGIN
	 0.02377303925,	 7.855034448e-010
	 0.02389272659,	 7.855143813e-010
	 0.02401184496,	 7.855256179e-010
	 0.02413040331,	 7.855371522e-010
	 0.02746141211,	 7.86006263e-010
	 0.02919178826,	 7.86364335e-010
END
BEGIN
	 0.1737367436,	 3.883892841e-008
	 0.1754902313,	 3.883946368e-008
	 0.1772441119,	 3.88400008e-008
	 0.1789983866,	 3.884053973e-008
	 0.2318057395,	 3.885728503e-008
	 0.2619127309,	 3.88669837e-008
END
CITIFILE A.01.01
NAME PortSet2/TwoP0_Dsolver_data/first_odd_mode_is_1/most_even_mode_is_1/PMLG4/LS0

VAR freq MAG 6

DATA GAMMA_2[1] RI
DATA Z0_2[1,1] RI
DATA LAMBADAI_2[1,1] RI
DATA Zcir_2[1,1] RI
DATA Ycir_2[1,1] RI

VAR_LIST_BEGIN
	 2000000000
	 2020000000
	 2040000000
	 2060000000
	 2659890769
	 3000000000
VAR_LIST_END

BEGIN
	 0.09593631321,	 69.40926983
	 0.09648179614,	 70.10433318
	 0.09702529456,	 70.79943098
	 0.09756683993,	 71.49456352
	 0.1130264966,	 92.36188287
	 0.121242067,	 104.2085373
END
BEGIN
	 53.576641379879042 ,	 -0.054980983530291891 
	 53.576644728017804 ,	 -0.054662168272217822 
	 53.576657034369639 ,	 -0.054348048295818803 
	 53.57667825505429 ,	 -0.054038510298853489 
	 53.581114705045756 ,	 -0.046443286190779781 
	 53.586626987916851 ,	 -0.043188533731854488 
END
BEGIN
	 0.09593631321,	 69.40926983
	 0.09648179614,	 70.10433318
	 0.09702529456,	 70.79943098
	 0.09756683993,	 71.49456352
	 0.1130264966,	 92.36188287
	 0.121242067,	 104.2085373
END
BEGIN
	 0.02377333013,	 7.855102434e-010
	 0.02389301892,	 7.855211799e-010
	 0.02401213874,	 7.855324164e-010
	 0.02413069853,	 7.855439507e-010
	 0.02746174974,	 7.860130615e-010
	 0.02919214465,	 7.863711336e-010
END
BEGIN
	 0.1737348673,	 3.883854157e-008
	 0.175488336,	 3.883907682e-008
	 0.1772421974,	 3.883961393e-008
	 0.1789964531,	 3.884015285e-008
	 0.2318032656,	 3.885689779e-008
	 0.2619098923,	 3.886659623e-008
END
