CITIFILE A.01.01
#Momentum: B.11.20.082 (*) 2014.01 Feb 25 2014 
#Momentum Date and Time: Thu Jan 15 15:41:14 2015

NAME Momentum.SP

#  mode: MW    project: proj    reference: S_50

CONSTANT NBR_OF_PORTS 4

CONSTANT NORMALIZATION 1

VAR freq MAG 11

DATA S[1,1] RI
DATA S[1,2] RI
DATA S[1,3] RI
DATA S[1,4] RI
DATA S[2,1] RI
DATA S[2,2] RI
DATA S[2,3] RI
DATA S[2,4] RI
DATA S[3,1] RI
DATA S[3,2] RI
DATA S[3,3] RI
DATA S[3,4] RI
DATA S[4,1] RI
DATA S[4,2] RI
DATA S[4,3] RI
DATA S[4,4] RI
DATA S_50[1,1] RI
DATA S_50[1,2] RI
DATA S_50[1,3] RI
DATA S_50[1,4] RI
DATA S_50[2,1] RI
DATA S_50[2,2] RI
DATA S_50[2,3] RI
DATA S_50[2,4] RI
DATA S_50[3,1] RI
DATA S_50[3,2] RI
DATA S_50[3,3] RI
DATA S_50[3,4] RI
DATA S_50[4,1] RI
DATA S_50[4,2] RI
DATA S_50[4,3] RI
DATA S_50[4,4] RI
DATA S_Z0[1,1] RI
DATA S_Z0[1,2] RI
DATA S_Z0[1,3] RI
DATA S_Z0[1,4] RI
DATA S_Z0[2,1] RI
DATA S_Z0[2,2] RI
DATA S_Z0[2,3] RI
DATA S_Z0[2,4] RI
DATA S_Z0[3,1] RI
DATA S_Z0[3,2] RI
DATA S_Z0[3,3] RI
DATA S_Z0[3,4] RI
DATA S_Z0[4,1] RI
DATA S_Z0[4,2] RI
DATA S_Z0[4,3] RI
DATA S_Z0[4,4] RI
DATA GAMMA[1] RI
DATA GAMMA[2] RI
DATA GAMMA[3] RI
DATA GAMMA[4] RI
DATA Z0[1] RI
DATA Z0[2] RI
DATA Z0[3] RI
DATA Z0[4] RI
DATA PORTZ[1] RI
DATA PORTZ[2] RI
DATA PORTZ[3] RI
DATA PORTZ[4] RI

VAR_LIST_BEGIN
	 0
	 277777777.8
	 1666666667
	 2500000000
	 3333333333
	 4166666667
	 5000000000
	 6666666667
	 8333333334
	 8611111112
	 1e+010
VAR_LIST_END

BEGIN
	 0.000167979414,	 0
	 0.00776115534,	 0.0290544221
	 0.132882529,	 0.0138779492
	 0.113650165,	-0.0795609287
	 0.0263391238,	-0.10522822
	-0.0254127131,	-0.0499019762
	-0.00112983931,	-0.000144202362
	 0.0312220261,	-0.04632991
	-0.0327341573,	-0.0357670629
	-0.0395102561,	-0.0258994189
	-0.0350704635,	 0.0485482463
END
BEGIN
	 0.99983202058649356 ,	 -0 
	 0.969358313,	-0.240364872
	 0.118585538,	-0.976551124
	-0.549086031,	-0.809377325
	-0.945279675,	-0.246450226
	-0.870996643,	 0.442363633
	-0.354574851,	 0.908752504
	 0.863297084,	 0.449117786
	 0.527551449,	-0.822303279
	 0.308649678,	-0.927210948
	-0.779035206,	-0.58049598
END
BEGIN
	 1.08137725e-018,	 0
	 0.00412340729,	 0.0160103657
	 0.0903868349,	 0.00762434325
	 0.101723665,	-0.0739982904
	 0.0347333276,	-0.14957925
	-0.0811315585,	-0.151140498
	-0.166366639,	-0.0617768166
	-0.0730061047,	 0.134660528
	 0.0638958713,	 0.052563077
	 0.0592343276,	 0.0316827632
	 0.00565455252,	 0.0296944492
END
BEGIN
	-9.9571182e-019,	-0
	-0.00163907399,	-0.00455435804
	-0.0213270553,	 0.00922476315
	-0.00784759309,	 0.0252067834
	 0.00952879343,	 0.0223038097
	 0.016003884,	 0.0159192969
	 0.0276936164,	 0.0135730861
	 0.0384930139,	-0.0517285849
	-0.078613019,	-0.0558236154
	-0.0952586772,	-0.0353665662
	-0.0744436882,	 0.105001366
END
BEGIN
	 0.99983202058649323 ,	 -0 
	 0.969358313,	-0.240364872
	 0.118585538,	-0.976551124
	-0.549086031,	-0.809377325
	-0.945279675,	-0.246450226
	-0.870996643,	 0.442363633
	-0.354574851,	 0.908752504
	 0.863297084,	 0.449117786
	 0.527551449,	-0.822303279
	 0.308649678,	-0.927210948
	-0.779035206,	-0.58049598
END
BEGIN
	 0.000167979414,	 0
	 0.00775943583,	 0.0290548484
	 0.132882406,	 0.013879003
	 0.113651319,	-0.0795592376
	 0.0263414918,	-0.105227597
	-0.0254095946,	-0.0499035202
	-0.00112825351,	-0.000147995741
	 0.0312180415,	-0.0463322576
	-0.0327354191,	-0.0357655375
	-0.0395108349,	-0.02589836
	-0.0350749416,	 0.0485450028
END
BEGIN
	-9.95711812e-019,	-0
	-0.00163905561,	-0.00455438315
	-0.0213271037,	 0.00922471379
	-0.0078477784,	 0.0252068613
	 0.00952874788,	 0.0223041425
	 0.0160042999,	 0.0159196741
	 0.027694419,	 0.0135728541
	 0.0384921241,	-0.0517297701
	-0.0786141786,	-0.0558220527
	-0.0952593533,	-0.0353647163
	-0.0744422867,	 0.105002505
END
BEGIN
	 1.08137718e-018,	 0
	 0.00412344052,	 0.0160103603
	 0.0903868499,	 0.00762430008
	 0.101723644,	-0.0739983394
	 0.0347332949,	-0.149579264
	-0.0811315866,	-0.151140495
	-0.166366666,	-0.0617767774
	-0.0730060564,	 0.134660573
	 0.0638959172,	 0.0525630113
	 0.0592343523,	 0.0316826863
	 0.00565445229,	 0.0296944413
END
BEGIN
	 1.08137725e-018,	 0
	 0.00412340729,	 0.0160103657
	 0.0903868349,	 0.00762434325
	 0.101723665,	-0.0739982904
	 0.0347333276,	-0.14957925
	-0.0811315585,	-0.151140498
	-0.166366639,	-0.0617768166
	-0.0730061047,	 0.134660528
	 0.0638958713,	 0.052563077
	 0.0592343276,	 0.0316827632
	 0.00565455252,	 0.0296944492
END
BEGIN
	-9.95711812e-019,	-0
	-0.00163905561,	-0.00455438315
	-0.0213271037,	 0.00922471379
	-0.0078477784,	 0.0252068613
	 0.00952874788,	 0.0223041425
	 0.0160042999,	 0.0159196741
	 0.027694419,	 0.0135728541
	 0.0384921241,	-0.0517297701
	-0.0786141786,	-0.0558220527
	-0.0952593533,	-0.0353647163
	-0.0744422867,	 0.105002505
END
BEGIN
	 0.00016797943,	 0
	 0.00776014905,	 0.029055288
	 0.132882579,	 0.0138784996
	 0.113651078,	-0.0795597289
	 0.0263411263,	-0.105227592
	-0.0254099729,	-0.0499032251
	-0.00112828799,	-0.000147629477
	 0.0312183795,	-0.0463323977
	-0.0327358971,	-0.0357658703
	-0.0395114396,	-0.0258985397
	-0.0350749854,	 0.0485457809
END
BEGIN
	 0.99983202057019671 ,	 -0 
	 0.969358122,	-0.240365568
	 0.118585247,	-0.976551145
	-0.549086214,	-0.809377188
	-0.945279788,	-0.246449832
	-0.870996385,	 0.442364154
	-0.354574294,	 0.908752722
	 0.863297429,	 0.449117096
	 0.527550704,	-0.822303729
	 0.308648777,	-0.92721122
	-0.779035719,	-0.580495211
END
BEGIN
	-9.9571182e-019,	-0
	-0.00163907399,	-0.00455435804
	-0.0213270553,	 0.00922476315
	-0.00784759309,	 0.0252067834
	 0.00952879343,	 0.0223038097
	 0.016003884,	 0.0159192969
	 0.0276936164,	 0.0135730861
	 0.0384930139,	-0.0517285849
	-0.078613019,	-0.0558236154
	-0.0952586772,	-0.0353665662
	-0.0744436882,	 0.105001366
END
BEGIN
	 1.08137718e-018,	 0
	 0.00412344052,	 0.0160103603
	 0.0903868499,	 0.00762430008
	 0.101723644,	-0.0739983394
	 0.0347332949,	-0.149579264
	-0.0811315866,	-0.151140495
	-0.166366666,	-0.0617767774
	-0.0730060564,	 0.134660573
	 0.0638959172,	 0.0525630113
	 0.0592343523,	 0.0316826863
	 0.00565445229,	 0.0296944413
END
BEGIN
	 0.99983202057019704 ,	 -0 
	 0.969358122,	-0.240365568
	 0.118585247,	-0.976551145
	-0.549086214,	-0.809377188
	-0.945279788,	-0.246449832
	-0.870996385,	 0.442364154
	-0.354574294,	 0.908752722
	 0.863297429,	 0.449117096
	 0.527550704,	-0.822303729
	 0.308648777,	-0.92721122
	-0.779035719,	-0.580495211
END
BEGIN
	 0.00016797943,	 0
	 0.00776077036,	 0.0290551338
	 0.132882584,	 0.0138783997
	 0.113650495,	-0.0795605746
	 0.0263393543,	-0.10522806
	-0.0254123113,	-0.049902077
	-0.00112961372,	-0.000144492014
	 0.031221882,	-0.0463303162
	-0.0327347224,	-0.0357673097
	-0.0395108984,	-0.0258995692
	-0.0350711327,	 0.0485486077
END
BEGIN
	 0.000167979414,	 0
	 0.00776115534,	 0.0290544221
	 0.132882529,	 0.0138779492
	 0.113650165,	-0.0795609287
	 0.0263391238,	-0.10522822
	-0.0254127131,	-0.0499019762
	-0.00112983931,	-0.000144202362
	 0.0312220261,	-0.04632991
	-0.0327341573,	-0.0357670629
	-0.0395102561,	-0.0258994189
	-0.0350704635,	 0.0485482463
END
BEGIN
	 0.99983202058649356 ,	 -0 
	 0.969358313,	-0.240364872
	 0.118585538,	-0.976551124
	-0.549086031,	-0.809377325
	-0.945279675,	-0.246450226
	-0.870996643,	 0.442363633
	-0.354574851,	 0.908752504
	 0.863297084,	 0.449117786
	 0.527551449,	-0.822303279
	 0.308649678,	-0.927210948
	-0.779035206,	-0.58049598
END
BEGIN
	 1.08137725e-018,	 0
	 0.00412340729,	 0.0160103657
	 0.0903868349,	 0.00762434325
	 0.101723665,	-0.0739982904
	 0.0347333276,	-0.14957925
	-0.0811315585,	-0.151140498
	-0.166366639,	-0.0617768166
	-0.0730061047,	 0.134660528
	 0.0638958713,	 0.052563077
	 0.0592343276,	 0.0316827632
	 0.00565455252,	 0.0296944492
END
BEGIN
	-9.9571182e-019,	-0
	-0.00163907399,	-0.00455435804
	-0.0213270553,	 0.00922476315
	-0.00784759309,	 0.0252067834
	 0.00952879343,	 0.0223038097
	 0.016003884,	 0.0159192969
	 0.0276936164,	 0.0135730861
	 0.0384930139,	-0.0517285849
	-0.078613019,	-0.0558236154
	-0.0952586772,	-0.0353665662
	-0.0744436882,	 0.105001366
END
BEGIN
	 0.99983202058649323 ,	 -0 
	 0.969358313,	-0.240364872
	 0.118585538,	-0.976551124
	-0.549086031,	-0.809377325
	-0.945279675,	-0.246450226
	-0.870996643,	 0.442363633
	-0.354574851,	 0.908752504
	 0.863297084,	 0.449117786
	 0.527551449,	-0.822303279
	 0.308649678,	-0.927210948
	-0.779035206,	-0.58049598
END
BEGIN
	 0.000167979414,	 0
	 0.00775943583,	 0.0290548484
	 0.132882406,	 0.013879003
	 0.113651319,	-0.0795592376
	 0.0263414918,	-0.105227597
	-0.0254095946,	-0.0499035202
	-0.00112825351,	-0.000147995741
	 0.0312180415,	-0.0463322576
	-0.0327354191,	-0.0357655375
	-0.0395108349,	-0.02589836
	-0.0350749416,	 0.0485450028
END
BEGIN
	-9.95711812e-019,	-0
	-0.00163905561,	-0.00455438315
	-0.0213271037,	 0.00922471379
	-0.0078477784,	 0.0252068613
	 0.00952874788,	 0.0223041425
	 0.0160042999,	 0.0159196741
	 0.027694419,	 0.0135728541
	 0.0384921241,	-0.0517297701
	-0.0786141786,	-0.0558220527
	-0.0952593533,	-0.0353647163
	-0.0744422867,	 0.105002505
END
BEGIN
	 1.08137718e-018,	 0
	 0.00412344052,	 0.0160103603
	 0.0903868499,	 0.00762430008
	 0.101723644,	-0.0739983394
	 0.0347332949,	-0.149579264
	-0.0811315866,	-0.151140495
	-0.166366666,	-0.0617767774
	-0.0730060564,	 0.134660573
	 0.0638959172,	 0.0525630113
	 0.0592343523,	 0.0316826863
	 0.00565445229,	 0.0296944413
END
BEGIN
	 1.08137725e-018,	 0
	 0.00412340729,	 0.0160103657
	 0.0903868349,	 0.00762434325
	 0.101723665,	-0.0739982904
	 0.0347333276,	-0.14957925
	-0.0811315585,	-0.151140498
	-0.166366639,	-0.0617768166
	-0.0730061047,	 0.134660528
	 0.0638958713,	 0.052563077
	 0.0592343276,	 0.0316827632
	 0.00565455252,	 0.0296944492
END
BEGIN
	-9.95711812e-019,	-0
	-0.00163905561,	-0.00455438315
	-0.0213271037,	 0.00922471379
	-0.0078477784,	 0.0252068613
	 0.00952874788,	 0.0223041425
	 0.0160042999,	 0.0159196741
	 0.027694419,	 0.0135728541
	 0.0384921241,	-0.0517297701
	-0.0786141786,	-0.0558220527
	-0.0952593533,	-0.0353647163
	-0.0744422867,	 0.105002505
END
BEGIN
	 0.00016797943,	 0
	 0.00776014905,	 0.029055288
	 0.132882579,	 0.0138784996
	 0.113651078,	-0.0795597289
	 0.0263411263,	-0.105227592
	-0.0254099729,	-0.0499032251
	-0.00112828799,	-0.000147629477
	 0.0312183795,	-0.0463323977
	-0.0327358971,	-0.0357658703
	-0.0395114396,	-0.0258985397
	-0.0350749854,	 0.0485457809
END
BEGIN
	 0.99983202057019671 ,	 -0 
	 0.969358122,	-0.240365568
	 0.118585247,	-0.976551145
	-0.549086214,	-0.809377188
	-0.945279788,	-0.246449832
	-0.870996385,	 0.442364154
	-0.354574294,	 0.908752722
	 0.863297429,	 0.449117096
	 0.527550704,	-0.822303729
	 0.308648777,	-0.92721122
	-0.779035719,	-0.580495211
END
BEGIN
	-9.9571182e-019,	-0
	-0.00163907399,	-0.00455435804
	-0.0213270553,	 0.00922476315
	-0.00784759309,	 0.0252067834
	 0.00952879343,	 0.0223038097
	 0.016003884,	 0.0159192969
	 0.0276936164,	 0.0135730861
	 0.0384930139,	-0.0517285849
	-0.078613019,	-0.0558236154
	-0.0952586772,	-0.0353665662
	-0.0744436882,	 0.105001366
END
BEGIN
	 1.08137718e-018,	 0
	 0.00412344052,	 0.0160103603
	 0.0903868499,	 0.00762430008
	 0.101723644,	-0.0739983394
	 0.0347332949,	-0.149579264
	-0.0811315866,	-0.151140495
	-0.166366666,	-0.0617767774
	-0.0730060564,	 0.134660573
	 0.0638959172,	 0.0525630113
	 0.0592343523,	 0.0316826863
	 0.00565445229,	 0.0296944413
END
BEGIN
	 0.99983202057019704 ,	 -0 
	 0.969358122,	-0.240365568
	 0.118585247,	-0.976551145
	-0.549086214,	-0.809377188
	-0.945279788,	-0.246449832
	-0.870996385,	 0.442364154
	-0.354574294,	 0.908752722
	 0.863297429,	 0.449117096
	 0.527550704,	-0.822303729
	 0.308648777,	-0.92721122
	-0.779035719,	-0.580495211
END
BEGIN
	 0.00016797943,	 0
	 0.00776077036,	 0.0290551338
	 0.132882584,	 0.0138783997
	 0.113650495,	-0.0795605746
	 0.0263393543,	-0.10522806
	-0.0254123113,	-0.049902077
	-0.00112961372,	-0.000144492014
	 0.031221882,	-0.0463303162
	-0.0327347224,	-0.0357673097
	-0.0395108984,	-0.0258995692
	-0.0350711327,	 0.0485486077
END
BEGIN
	 0.00040934716,	-0.0158957731
	 0.003367472,	 0.0117606899
	 0.0693403632,	 0.00630323424
	 0.0694443264,	-0.0509674312
	 0.01994226,	-0.0905517927
	-0.0408468079,	-0.0748024822
	-0.0578067838,	-0.0212088291
	 0.0148662486,	-0.0200494461
	-0.0833401559,	-0.0662855814
	-0.103427344,	-0.0460401611
	-0.0633582585,	 0.082159454
END
BEGIN
	 0.9995906528401034 ,	 0.015895773070773837 
	 0.970559602,	-0.237219452
	 0.120339876,	-0.982926687
	-0.555653855,	-0.81180932
	-0.947972582,	-0.240847634
	-0.867179401,	 0.444603363
	-0.353567281,	 0.906947036
	 0.866035306,	 0.448359063
	 0.522089713,	-0.821395135
	 0.304201943,	-0.923609755
	-0.77360824,	-0.582129919
END
BEGIN
	 1.01322524e-018,	 3.07713888e-020
	 0.00391167192,	 0.0157925616
	 0.0912391944,	 0.00917224205
	 0.103748589,	-0.0751183816
	 0.033799611,	-0.151824964
	-0.0833325501,	-0.150962378
	-0.167393925,	-0.0598197505
	-0.0692075087,	 0.133166013
	 0.057589254,	 0.0544694583
	 0.0544474291,	 0.0368296278
	 0.0144441432,	 0.0268167018
END
BEGIN
	-9.21315109e-019,	-3.07713883e-020
	-0.00108458694,	-0.00361181433
	-0.0202578986,	 0.00343549338
	-0.015577722,	 0.0226557417
	 0.00514330326,	 0.0312303302
	 0.0253159188,	 0.0221327903
	 0.0353804522,	 0.00472195742
	 0.0299462236,	-0.0460353078
	-0.0729984638,	-0.0568708662
	-0.0912733092,	-0.0379902352
	-0.0740056524,	 0.102145595
END
BEGIN
	 0.99959065284010296 ,	 0.01589577307077383 
	 0.970559602,	-0.237219452
	 0.120339876,	-0.982926687
	-0.555653855,	-0.81180932
	-0.947972582,	-0.240847634
	-0.867179401,	 0.444603363
	-0.353567281,	 0.906947036
	 0.866035306,	 0.448359063
	 0.522089713,	-0.821395135
	 0.304201943,	-0.923609755
	-0.77360824,	-0.582129919
END
BEGIN
	 0.00040934716,	-0.0158957731
	 0.00336575038,	 0.0117611107
	 0.0693402384,	 0.00630429476
	 0.0694454939,	-0.0509657351
	 0.0199446346,	-0.0905511834
	-0.0408437023,	-0.0748040341
	-0.0578052014,	-0.0212126163
	 0.0148622452,	-0.0200517875
	-0.0833413934,	-0.0662840616
	-0.103427907,	-0.0460391172
	-0.0633627212,	 0.0821562057
END
BEGIN
	-9.21315101e-019,	-3.07713882e-020
	-0.00108456827,	-0.0036118391
	-0.0202579475,	 0.00343544282
	-0.0155779108,	 0.0226558213
	 0.00514325982,	 0.0312306678
	 0.0253163408,	 0.0221331666
	 0.0353812583,	 0.00472171884
	 0.0299453131,	-0.0460364852
	-0.0729995999,	-0.0568693088
	-0.0912739702,	-0.0379883987
	-0.0740042142,	 0.102146721
END
BEGIN
	 1.01322517e-018,	 3.07713877e-020
	 0.00391170488,	 0.0157925558
	 0.0912392089,	 0.00917220145
	 0.103748572,	-0.0751184293
	 0.0337995796,	-0.151824981
	-0.0833325823,	-0.150962378
	-0.167393955,	-0.0598197082
	-0.0692074577,	 0.133166057
	 0.0575892991,	 0.0544693927
	 0.0544474533,	 0.0368295513
	 0.0144440436,	 0.0268166926
END
BEGIN
	 1.01322524e-018,	 3.07713888e-020
	 0.00391167192,	 0.0157925616
	 0.0912391944,	 0.00917224205
	 0.103748589,	-0.0751183816
	 0.033799611,	-0.151824964
	-0.0833325501,	-0.150962378
	-0.167393925,	-0.0598197505
	-0.0692075087,	 0.133166013
	 0.057589254,	 0.0544694583
	 0.0544474291,	 0.0368296278
	 0.0144441432,	 0.0268167018
END
BEGIN
	-9.21315101e-019,	-3.07713882e-020
	-0.00108456827,	-0.0036118391
	-0.0202579475,	 0.00343544282
	-0.0155779108,	 0.0226558213
	 0.00514325982,	 0.0312306678
	 0.0253163408,	 0.0221331666
	 0.0353812583,	 0.00472171884
	 0.0299453131,	-0.0460364852
	-0.0729995999,	-0.0568693088
	-0.0912739702,	-0.0379883987
	-0.0740042142,	 0.102146721
END
BEGIN
	 0.000409347175,	-0.0158957731
	 0.00336643878,	 0.0117615123
	 0.0693404092,	 0.00630380719
	 0.0694452641,	-0.0509662233
	 0.0199442819,	-0.0905511994
	-0.0408441092,	-0.0748037608
	-0.0578052628,	-0.0212122216
	 0.0148626272,	-0.02005196
	-0.0833419262,	-0.0662843623
	-0.103428546,	-0.0460392381
	-0.063362706,	 0.0821569583
END
BEGIN
	 0.99959065282490422 ,	 0.015895773070295376 
	 0.970559433,	-0.237220116
	 0.120339583,	-0.982926715
	-0.555654044,	-0.811809182
	-0.947972688,	-0.240847242
	-0.867179144,	 0.444603877
	-0.35356673,	 0.906947257
	 0.866035666,	 0.448358357
	 0.522088932,	-0.821395558
	 0.304201023,	-0.923609982
	-0.773608711,	-0.582129174
END
BEGIN
	-9.21315109e-019,	-3.07713883e-020
	-0.00108458694,	-0.00361181433
	-0.0202578986,	 0.00343549338
	-0.015577722,	 0.0226557417
	 0.00514330326,	 0.0312303302
	 0.0253159188,	 0.0221327903
	 0.0353804522,	 0.00472195742
	 0.0299462236,	-0.0460353078
	-0.0729984638,	-0.0568708662
	-0.0912733092,	-0.0379902352
	-0.0740056524,	 0.102145595
END
BEGIN
	 1.01322517e-018,	 3.07713877e-020
	 0.00391170488,	 0.0157925558
	 0.0912392089,	 0.00917220145
	 0.103748572,	-0.0751184293
	 0.0337995796,	-0.151824981
	-0.0833325823,	-0.150962378
	-0.167393955,	-0.0598197082
	-0.0692074577,	 0.133166057
	 0.0575892991,	 0.0544693927
	 0.0544474533,	 0.0368295513
	 0.0144440436,	 0.0268166926
END
BEGIN
	 0.99959065282490467 ,	 0.015895773070295379 
	 0.970559433,	-0.237220116
	 0.120339583,	-0.982926715
	-0.555654044,	-0.811809182
	-0.947972688,	-0.240847242
	-0.867179144,	 0.444603877
	-0.35356673,	 0.906947257
	 0.866035666,	 0.448358357
	 0.522088932,	-0.821395558
	 0.304201023,	-0.923609982
	-0.773608711,	-0.582129174
END
BEGIN
	 0.000409347175,	-0.0158957731
	 0.00336706088,	 0.0117613602
	 0.0693404144,	 0.00630370633
	 0.0694446737,	-0.0509670716
	 0.0199425047,	-0.0905516567
	-0.0408464376,	-0.0748026065
	-0.0578065851,	-0.0212090899
	 0.0148661458,	-0.0200498835
	-0.0833407741,	-0.0662857963
	-0.10342802,	-0.0460402532
	-0.0633588645,	 0.082159788
END
BEGIN
	 5.92928365e-010,	 3.4952826e-008
	 0.0288991655,	 9.65203959
	 0.0890897173,	 57.8452791
	 0.117718541,	 86.8171731
	 0.144438162,	 115.854901
	 0.169968789,	 144.969827
	 0.194700058,	 174.169702
	 0.242669327,	 232.842361
	 0.289362508,	 291.898956
	 0.29706841,	 301.779459
	 0.335247254,	 351.353949
END
BEGIN
	 5.92928365e-010,	 3.4952826e-008
	 0.0288991655,	 9.65203959
	 0.0890897173,	 57.8452791
	 0.117718541,	 86.8171731
	 0.144438162,	 115.854901
	 0.169968789,	 144.969827
	 0.194700058,	 174.169702
	 0.242669327,	 232.842361
	 0.289362508,	 291.898956
	 0.29706841,	 301.779459
	 0.335247254,	 351.353949
END
BEGIN
	 5.92928365e-010,	 3.4952826e-008
	 0.0288991655,	 9.65203959
	 0.0890897173,	 57.8452791
	 0.117718541,	 86.8171731
	 0.144438162,	 115.854901
	 0.169968789,	 144.969827
	 0.194700058,	 174.169702
	 0.242669327,	 232.842361
	 0.289362508,	 291.898956
	 0.29706841,	 301.779459
	 0.335247254,	 351.353949
END
BEGIN
	 5.92928365e-010,	 3.4952826e-008
	 0.0288991655,	 9.65203959
	 0.0890897173,	 57.8452791
	 0.117718541,	 86.8171731
	 0.144438162,	 115.854901
	 0.169968789,	 144.969827
	 0.194700058,	 174.169702
	 0.242669327,	 232.842361
	 0.289362508,	 291.898956
	 0.29706841,	 301.779459
	 0.335247254,	 351.353949
END
BEGIN
	 53.644819040000002 ,	 -0.85320865899999998 
	 53.446812989999998 ,	 -0.1033128842 
	 53.404832810000002 ,	 -0.025387544259999999 
	 53.413938369999997 ,	 -0.0153997588 
	 53.433823709999999 ,	 -0.0093921529089999994 
	 53.463970240000002 ,	 -0.0052320297399999997 
	 53.504249270000003 ,	 -0.0021094343850000001 
	 53.614723339999998 ,	 0.002380253132 
	 53.763739770000001 ,	 0.0055719383319999998 
	 53.792158579999999 ,	 0.0060217138459999998 
	 53.94972594 ,	 0.0080489924839999994 
END
BEGIN
	 53.644819040000002 ,	 -0.85320865899999998 
	 53.446812989999998 ,	 -0.1033128842 
	 53.404832810000002 ,	 -0.025387544259999999 
	 53.413938369999997 ,	 -0.0153997588 
	 53.433823709999999 ,	 -0.0093921529089999994 
	 53.463970240000002 ,	 -0.0052320297399999997 
	 53.504249270000003 ,	 -0.0021094343850000001 
	 53.614723339999998 ,	 0.002380253132 
	 53.763739770000001 ,	 0.0055719383319999998 
	 53.792158579999999 ,	 0.0060217138459999998 
	 53.94972594 ,	 0.0080489924839999994 
END
BEGIN
	 53.644819040000002 ,	 -0.85320865899999998 
	 53.446812989999998 ,	 -0.1033128842 
	 53.404832810000002 ,	 -0.025387544259999999 
	 53.413938369999997 ,	 -0.0153997588 
	 53.433823709999999 ,	 -0.0093921529089999994 
	 53.463970240000002 ,	 -0.0052320297399999997 
	 53.504249270000003 ,	 -0.0021094343850000001 
	 53.614723339999998 ,	 0.002380253132 
