CITIFILE A.01.01
#Momentum: B.11.20.082 (*) 2014.01 Feb 25 2014 
#Momentum Date and Time: Thu Jan 15 15:41:07 2015

NAME PortSet1/TwoP0_Dsolver_data/first_odd_mode_is_1/most_even_mode_is_1/PMLG4/LS0

CONSTANT NBR_OF_PORTS 4

VAR freq MAG 34

DATA GAMMA_1[1] RI
DATA Z0_1[1,1] RI
DATA LAMBADAI_1[1,1] RI
DATA Zcir_1[1,1] RI
DATA Ycir_1[1,1] RI

VAR_LIST_BEGIN
	 9722656.42
	 9819882.984
	 9917109.548
	 10014336.11
	 18458825.81
	 25864250.85
	 33269675.89
	 40675100.93
	 49246515.08
	 59380319.11
	 71689254.24
	 87837241.66
	 115108100.9
	 132850060.6
	 150592020.4
	 168333980.1
	 201493036.9
	 251559946.3
	 315902178.7
	 398167600.2
	 506114997.5
	 639634199.6
	 799333933.1
	 995675651.8
	 1244745262
	 1561053973
	 1957759197
	 2452214524
	 3069657711
	 3843247979
	 4813392487
	 6028837590
	 7550241944
	 1e+010
VAR_LIST_END

BEGIN
	 0.005764838779,	 0.3398343184
	 0.005770944093,	 0.3432301326
	 0.005777089051,	 0.3466259272
	 0.005783273579,	 0.3500217021
	 0.006460587769,	 0.6448622256
	 0.007242971084,	 0.9032350614
	 0.008141784402,	 1.161411704
	 0.009103151545,	 1.419395218
	 0.0102374633,	 1.717780729
	 0.01154988454,	 2.070304803
	 0.01304996835,	 2.498219157
	 0.01483348992,	 3.059288628
	 0.01743867675,	 4.006383852
	 0.01893778052,	 4.62238189
	 0.02033401725,	 5.238297417
	 0.0216558492,	 5.854148196
	 0.023985872,	 7.005006971
	 0.02726429629,	 8.742399209
	 0.03117591469,	 10.9747723
	 0.03580963184,	 13.82856509
	 0.04143446526,	 17.5728642
	 0.04788823988,	 22.20394209
	 0.05509404762,	 27.74326235
	 0.06340827973,	 34.55441527
	 0.0733377551,	 43.19696319
	 0.08524011892,	 54.17758739
	 0.09937747241,	 67.95893125
	 0.1161345108,	 85.15424094
	 0.1361217196,	 106.6593658
	 0.1601500826,	 133.6609239
	 0.1892033265,	 167.6236708
	 0.2244797034,	 210.3448957
	 0.2675081282,	 264.1040831
	 0.3352472542,	 351.3539485
END
BEGIN
	 53.644819043649775 ,	 -0.85320865902878751 
	 53.64477489541536 ,	 -0.845158654487002 
	 53.644732106523918 ,	 -0.83727257796238608 
	 53.644690562010211 ,	 -0.82954564467290837 
	 53.64048982835277 ,	 -0.48058412603053668 
	 53.6325536427643 ,	 -0.37325608746561983 
	 53.621421684987141 ,	 -0.31908305834269307 
	 53.60851481903358 ,	 -0.28700281168210895 
	 53.592846009850476 ,	 -0.26259686539896249 
	 53.574806172871824 ,	 -0.24209648461429301 
	 53.554970641489071 ,	 -0.22298118803657735 
	 53.533244882243864 ,	 -0.20280634107286627 
	 53.506399780092039 ,	 -0.17615806398746736 
	 53.493830256497702 ,	 -0.16243036710000142 
	 53.483891271962115 ,	 -0.15088701112506289 
	 53.475848773525158 ,	 -0.14109709429276443 
	 53.464258749099507 ,	 -0.12634996179374341 
	 53.45191743878955 ,	 -0.10998343666008793 
	 53.441053913771945 ,	 -0.095097615073054254 
	 53.431598634190628 ,	 -0.081650087939553861 
	 53.423328269752098 ,	 -0.069246750380772201 
	 53.416654919553466 ,	 -0.058478229885232373 
	 53.411533148676945 ,	 -0.049324893840444015 
	 53.4076972151462 ,	 -0.041240143711874379 
	 53.405212074810997 ,	 -0.033871770345452322 
	 53.404582228322496 ,	 -0.027178532106603166 
	 53.406716603022893 ,	 -0.021182082268835029 
	 53.413119242955879 ,	 -0.015829872382619369 
	 53.426419124175368 ,	 -0.011026081784705901 
	 53.451066904267179 ,	 -0.0066839571877159608 
	 53.49435850585305 ,	 -0.0027373390326557987 
	 53.567817809756214 ,	 0.00087038799553487288 
	 53.689181788288899 ,	 0.0041968897723317876 
	 53.949725943333156 ,	 0.0080489924831944806 
END
BEGIN
	 0.005764838779,	 0.3398343184
	 0.005770944093,	 0.3432301326
	 0.005777089051,	 0.3466259272
	 0.005783273579,	 0.3500217021
	 0.006460587769,	 0.6448622256
	 0.007242971084,	 0.9032350614
	 0.008141784402,	 1.161411704
	 0.009103151545,	 1.419395218
	 0.0102374633,	 1.717780729
	 0.01154988454,	 2.070304803
	 0.01304996835,	 2.498219157
	 0.01483348992,	 3.059288628
	 0.01743867675,	 4.006383852
	 0.01893778052,	 4.62238189
	 0.02033401725,	 5.238297417
	 0.0216558492,	 5.854148196
	 0.023985872,	 7.005006971
	 0.02726429629,	 8.742399209
	 0.03117591469,	 10.9747723
	 0.03580963184,	 13.82856509
	 0.04143446526,	 17.5728642
	 0.04788823988,	 22.20394209
	 0.05509404762,	 27.74326235
	 0.06340827973,	 34.55441527
	 0.0733377551,	 43.19696319
	 0.08524011892,	 54.17758739
	 0.09937747241,	 67.95893125
	 0.1161345108,	 85.15424094
	 0.1361217196,	 106.6593658
	 0.1601500826,	 133.6609239
	 0.1892033265,	 167.6236708
	 0.2244797034,	 210.3448957
	 0.2675081282,	 264.1040831
	 0.3352472542,	 351.3539485
END
BEGIN
	 0.001590536282,	 7.919219741e-010
	 0.001591761555,	 7.91919376e-010
	 0.001592998154,	 7.919167541e-010
	 0.001594246054,	 7.919141082e-010
	 0.001742518523,	 7.916006116e-010
	 0.00192603805,	 7.912152069e-010
	 0.002142542586,	 7.907648186e-010
	 0.002376704755,	 7.902837755e-010
	 0.002653724569,	 7.89724961e-010
	 0.002972938845,	 7.890979697e-010
	 0.00333380757,	 7.884176084e-010
	 0.00375474904,	 7.876746305e-010
	 0.004350160696,	 7.867480555e-010
	 0.004682047855,	 7.863064937e-010
	 0.004984820912,	 7.859518452e-010
	 0.005266547095,	 7.856604137e-010
	 0.005753370112,	 7.852321425e-010
	 0.006420634596,	 7.847641343e-010
	 0.007192805919,	 7.84341546e-010
	 0.008075986707,	 7.839658659e-010
	 0.009105798434,	 7.836325436e-010
	 0.01023670285,	 7.833639398e-010
	 0.01144343914,	 7.831645672e-010
	 0.01277178504,	 7.830300018e-010
	 0.01428017612,	 7.829705275e-010
	 0.01599202182,	 7.830138076e-010
	 0.01790919124,	 7.831994937e-010
	 0.02004374458,	 7.835831539e-010
	 0.02242593559,	 7.842499543e-010
	 0.02509374746,	 7.853294219e-010
	 0.02808415339,	 7.870123254e-010
	 0.03143310771,	 7.89572219e-010
	 0.03518133387,	 7.933970302e-010
	 0.0405023156,	 8.007992301e-010
END
BEGIN
	 0.00252648018,	 3.90672267e-008
	 0.002551746679,	 3.906696479e-008
	 0.002577013178,	 3.906670546e-008
	 0.002602279676,	 3.906644866e-008
	 0.004796765615,	 3.905035729e-008
	 0.006721221009,	 3.90414887e-008
	 0.008645670324,	 3.903487578e-008
	 0.0105701145,	 3.902960413e-008
	 0.01279755886,	 3.902459615e-008
	 0.01543101575,	 3.901970608e-008
	 0.01862971954,	 3.901479799e-008
	 0.02282607949,	 3.900952826e-008
	 0.02991298302,	 3.900256899e-008
	 0.03452366491,	 3.899891538e-008
	 0.03913441544,	 3.899574796e-008
	 0.04374525069,	 3.89929604e-008
	 0.05236300846,	 3.8988527e-008
	 0.065375846,	 3.898320659e-008
	 0.08210094512,	 3.897799204e-008
	 0.1034891041,	 3.897305912e-008
	 0.1315630435,	 3.896850658e-008
	 0.1663042314,	 3.896484799e-008
	 0.2078867072,	 3.896237483e-008
	 0.259061201,	 3.89612538e-008
	 0.3240725746,	 3.896190141e-008
	 0.4068069095,	 3.896495825e-008
	 0.510875976,	 3.897107016e-008
	 0.6411138914,	 3.898080268e-008
	 0.8046301215,	 3.899454297e-008
	 1.0109565770397142 ,	 3.9012204392685451e-008 
	 1.2720457076090597 ,	 3.9032545171674904e-008 
	 1.6027513618123335 ,	 3.9052171713519547e-008 
	 2.0219352816983136 ,	 3.9064132474272694e-008 
	 2.707076365515519 ,	 3.9048673360574818e-008 
END
CITIFILE A.01.01
NAME PortSet2/TwoP0_Dsolver_data/first_odd_mode_is_1/most_even_mode_is_1/PMLG4/LS0

VAR freq MAG 34

DATA GAMMA_1[1] RI
DATA Z0_1[1,1] RI
DATA LAMBADAI_1[1,1] RI
DATA Zcir_1[1,1] RI
DATA Ycir_1[1,1] RI

VAR_LIST_BEGIN
	 9722656.42
	 9819882.984
	 9917109.548
	 10014336.11
	 18458825.81
	 25864250.85
	 33269675.89
	 40675100.93
	 49246515.08
	 59380319.11
	 71689254.24
	 87837241.66
	 115108100.9
	 132850060.6
	 150592020.4
	 168333980.1
	 201493036.9
	 251559946.3
	 315902178.7
	 398167600.2
	 506114997.5
	 639634199.6
	 799333933.1
	 995675651.8
	 1244745262
	 1561053973
	 1957759197
	 2452214524
	 3069657711
	 3843247979
	 4813392487
	 6028837590
	 7550241944
	 1e+010
VAR_LIST_END

BEGIN
	 0.005764838779,	 0.3398343184
	 0.005770944093,	 0.3432301326
	 0.005777089051,	 0.3466259272
	 0.005783273579,	 0.3500217021
	 0.006460587769,	 0.6448622256
	 0.007242971084,	 0.9032350614
	 0.008141784402,	 1.161411704
	 0.009103151545,	 1.419395218
	 0.0102374633,	 1.717780729
	 0.01154988454,	 2.070304803
	 0.01304996835,	 2.498219157
	 0.01483348992,	 3.059288628
	 0.01743867675,	 4.006383852
	 0.01893778052,	 4.62238189
	 0.02033401725,	 5.238297417
	 0.0216558492,	 5.854148196
	 0.023985872,	 7.005006971
	 0.02726429629,	 8.742399209
	 0.03117591469,	 10.9747723
	 0.03580963184,	 13.82856509
	 0.04143446526,	 17.5728642
	 0.04788823988,	 22.20394209
	 0.05509404762,	 27.74326235
	 0.06340827973,	 34.55441527
	 0.0733377551,	 43.19696319
	 0.08524011892,	 54.17758739
	 0.09937747241,	 67.95893125
	 0.1161345108,	 85.15424094
	 0.1361217196,	 106.6593658
	 0.1601500826,	 133.6609239
	 0.1892033265,	 167.6236708
	 0.2244797034,	 210.3448957
	 0.2675081282,	 264.1040831
	 0.3352472542,	 351.3539485
END
BEGIN
	 53.644819043649775 ,	 -0.85320865902878751 
	 53.64477489541536 ,	 -0.845158654487002 
	 53.644732106523918 ,	 -0.83727257796238608 
	 53.644690562010211 ,	 -0.82954564467290837 
	 53.64048982835277 ,	 -0.48058412603053668 
	 53.6325536427643 ,	 -0.37325608746561983 
	 53.621421684987141 ,	 -0.31908305834269307 
	 53.60851481903358 ,	 -0.28700281168210895 
	 53.592846009850476 ,	 -0.26259686539896249 
	 53.574806172871824 ,	 -0.24209648461429301 
	 53.554970641489071 ,	 -0.22298118803657735 
	 53.533244882243864 ,	 -0.20280634107286627 
	 53.506399780092039 ,	 -0.17615806398746736 
	 53.493830256497702 ,	 -0.16243036710000142 
	 53.483891271962115 ,	 -0.15088701112506289 
	 53.475848773525158 ,	 -0.14109709429276443 
	 53.464258749099507 ,	 -0.12634996179374341 
	 53.45191743878955 ,	 -0.10998343666008793 
	 53.441053913771945 ,	 -0.095097615073054254 
	 53.431598634190628 ,	 -0.081650087939553861 
	 53.423328269752098 ,	 -0.069246750380772201 
	 53.416654919553466 ,	 -0.058478229885232373 
	 53.411533148676945 ,	 -0.049324893840444015 
	 53.4076972151462 ,	 -0.041240143711874379 
	 53.405212074810997 ,	 -0.033871770345452322 
	 53.404582228322496 ,	 -0.027178532106603166 
	 53.406716603022893 ,	 -0.021182082268835029 
	 53.413119242955879 ,	 -0.015829872382619369 
	 53.426419124175368 ,	 -0.011026081784705901 
	 53.451066904267179 ,	 -0.0066839571877159608 
	 53.49435850585305 ,	 -0.0027373390326557987 
	 53.567817809756214 ,	 0.00087038799553487288 
	 53.689181788288899 ,	 0.0041968897723317876 
	 53.949725943333156 ,	 0.0080489924831944806 
END
BEGIN
	 0.005764838779,	 0.3398343184
	 0.005770944093,	 0.3432301326
	 0.005777089051,	 0.3466259272
	 0.005783273579,	 0.3500217021
	 0.006460587769,	 0.6448622256
	 0.007242971084,	 0.9032350614
	 0.008141784402,	 1.161411704
	 0.009103151545,	 1.419395218
	 0.0102374633,	 1.717780729
	 0.01154988454,	 2.070304803
	 0.01304996835,	 2.498219157
	 0.01483348992,	 3.059288628
	 0.01743867675,	 4.006383852
	 0.01893778052,	 4.62238189
	 0.02033401725,	 5.238297417
	 0.0216558492,	 5.854148196
	 0.023985872,	 7.005006971
	 0.02726429629,	 8.742399209
	 0.03117591469,	 10.9747723
	 0.03580963184,	 13.82856509
	 0.04143446526,	 17.5728642
	 0.04788823988,	 22.20394209
	 0.05509404762,	 27.74326235
	 0.06340827973,	 34.55441527
	 0.0733377551,	 43.19696319
	 0.08524011892,	 54.17758739
	 0.09937747241,	 67.95893125
	 0.1161345108,	 85.15424094
	 0.1361217196,	 106.6593658
	 0.1601500826,	 133.6609239
	 0.1892033265,	 167.6236708
	 0.2244797034,	 210.3448957
	 0.2675081282,	 264.1040831
	 0.3352472542,	 351.3539485
END
BEGIN
	 0.001590536282,	 7.919219741e-010
	 0.001591761555,	 7.91919376e-010
	 0.001592998154,	 7.919167541e-010
	 0.001594246054,	 7.919141082e-010
	 0.001742518523,	 7.916006116e-010
	 0.00192603805,	 7.912152069e-010
	 0.002142542586,	 7.907648186e-010
	 0.002376704755,	 7.902837755e-010
	 0.002653724569,	 7.89724961e-010
	 0.002972938845,	 7.890979697e-010
	 0.00333380757,	 7.884176084e-010
	 0.00375474904,	 7.876746305e-010
	 0.004350160696,	 7.867480555e-010
	 0.004682047855,	 7.863064937e-010
	 0.004984820912,	 7.859518452e-010
	 0.005266547095,	 7.856604137e-010
	 0.005753370112,	 7.852321425e-010
	 0.006420634596,	 7.847641343e-010
	 0.007192805919,	 7.84341546e-010
	 0.008075986707,	 7.839658659e-010
	 0.009105798434,	 7.836325436e-010
	 0.01023670285,	 7.833639398e-010
	 0.01144343914,	 7.831645672e-010
	 0.01277178504,	 7.830300018e-010
	 0.01428017612,	 7.829705275e-010
	 0.01599202182,	 7.830138076e-010
	 0.01790919124,	 7.831994937e-010
	 0.02004374458,	 7.835831539e-010
	 0.02242593559,	 7.842499543e-010
	 0.02509374746,	 7.853294219e-010
	 0.02808415339,	 7.870123254e-010
	 0.03143310771,	 7.89572219e-010
	 0.03518133387,	 7.933970302e-010
	 0.0405023156,	 8.007992301e-010
END
BEGIN
	 0.00252648018,	 3.90672267e-008
	 0.002551746679,	 3.906696479e-008
	 0.002577013178,	 3.906670546e-008
	 0.002602279676,	 3.906644866e-008
	 0.004796765615,	 3.905035729e-008
	 0.006721221009,	 3.90414887e-008
	 0.008645670324,	 3.903487578e-008
	 0.0105701145,	 3.902960413e-008
	 0.01279755886,	 3.902459615e-008
	 0.01543101575,	 3.901970608e-008
	 0.01862971954,	 3.901479799e-008
	 0.02282607949,	 3.900952826e-008
	 0.02991298302,	 3.900256899e-008
	 0.03452366491,	 3.899891538e-008
	 0.03913441544,	 3.899574796e-008
	 0.04374525069,	 3.89929604e-008
	 0.05236300846,	 3.8988527e-008
	 0.065375846,	 3.898320659e-008
	 0.08210094512,	 3.897799204e-008
	 0.1034891041,	 3.897305912e-008
	 0.1315630435,	 3.896850658e-008
	 0.1663042314,	 3.896484799e-008
	 0.2078867072,	 3.896237483e-008
	 0.259061201,	 3.89612538e-008
	 0.3240725746,	 3.896190141e-008
	 0.4068069095,	 3.896495825e-008
	 0.510875976,	 3.897107016e-008
	 0.6411138914,	 3.898080268e-008
	 0.8046301215,	 3.899454297e-008
	 1.0109565770397142 ,	 3.9012204392685451e-008 
	 1.2720457076090597 ,	 3.9032545171674904e-008 
	 1.6027513618123335 ,	 3.9052171713519547e-008 
	 2.0219352816983136 ,	 3.9064132474272694e-008 
	 2.707076365515519 ,	 3.9048673360574818e-008 
END
CITIFILE A.01.01
NAME PortSet3/TwoP0_Dsolver_data/first_odd_mode_is_1/most_even_mode_is_1/PMLG4/LS0

VAR freq MAG 34

DATA GAMMA_1[1] RI
DATA Z0_1[1,1] RI
DATA LAMBADAI_1[1,1] RI
DATA Zcir_1[1,1] RI
DATA Ycir_1[1,1] RI

VAR_LIST_BEGIN
	 9722656.42
	 9819882.984
	 9917109.548
	 10014336.11
	 18458825.81
	 25864250.85
	 33269675.89
	 40675100.93
	 49246515.08
	 59380319.11
	 71689254.24
	 87837241.66
	 115108100.9
	 132850060.6
	 150592020.4
	 168333980.1
	 201493036.9
	 251559946.3
	 315902178.7
	 398167600.2
	 506114997.5
	 639634199.6
	 799333933.1
	 995675651.8
	 1244745262
	 1561053973
	 1957759197
	 2452214524
	 3069657711
	 3843247979
	 4813392487
	 6028837590
	 7550241944
	 1e+010
VAR_LIST_END

BEGIN
	 0.005764838779,	 0.3398343184
	 0.005770944093,	 0.3432301326
	 0.005777089051,	 0.3466259272
	 0.005783273579,	 0.3500217021
	 0.006460587769,	 0.6448622256
	 0.007242971084,	 0.9032350614
	 0.008141784402,	 1.161411704
	 0.009103151545,	 1.419395218
	 0.0102374633,	 1.717780729
	 0.01154988454,	 2.070304803
	 0.01304996835,	 2.498219157
	 0.01483348992,	 3.059288628
	 0.01743867675,	 4.006383852
	 0.01893778052,	 4.62238189
	 0.02033401725,	 5.238297417
	 0.0216558492,	 5.854148196
	 0.023985872,	 7.005006971
	 0.02726429629,	 8.742399209
	 0.03117591469,	 10.9747723
	 0.03580963184,	 13.82856509
	 0.04143446526,	 17.5728642
	 0.04788823988,	 22.20394209
	 0.05509404762,	 27.74326235
	 0.06340827973,	 34.55441527
	 0.0733377551,	 43.19696319
	 0.08524011892,	 54.17758739
	 0.09937747241,	 67.95893125
	 0.1161345108,	 85.15424094
	 0.1361217196,	 106.6593658
	 0.1601500826,	 133.6609239
	 0.1892033265,	 167.6236708
	 0.2244797034,	 210.3448957
	 0.2675081282,	 264.1040831
	 0.3352472542,	 351.3539485
END
BEGIN
	 53.644819043649775 ,	 -0.85320865902878751 
	 53.64477489541536 ,	 -0.845158654487002 
	 53.644732106523918 ,	 -0.83727257796238608 
	 53.644690562010211 ,	 -0.82954564467290837 
	 53.64048982835277 ,	 -0.48058412603053668 
	 53.6325536427643 ,	 -0.37325608746561983 
	 53.621421684987141 ,	 -0.31908305834269307 
	 53.60851481903358 ,	 -0.28700281168210895 
	 53.592846009850476 ,	 -0.26259686539896249 
	 53.574806172871824 ,	 -0.24209648461429301 
	 53.554970641489071 ,	 -0.22298118803657735 
	 53.533244882243864 ,	 -0.20280634107286627 
	 53.506399780092039 ,	 -0.17615806398746736 
	 53.493830256497702 ,	 -0.16243036710000142 
	 53.483891271962115 ,	 -0.15088701112506289 
	 53.475848773525158 ,	 -0.14109709429276443 
	 53.464258749099507 ,	 -0.12634996179374341 
	 53.45191743878955 ,	 -0.10998343666008793 
	 53.441053913771945 ,	 -0.095097615073054254 
	 53.431598634190628 ,	 -0.081650087939553861 
	 53.423328269752098 ,	 -0.069246750380772201 
	 53.416654919553466 ,	 -0.058478229885232373 
	 53.411533148676945 ,	 -0.049324893840444015 
	 53.4076972151462 ,	 -0.041240143711874379 
	 53.405212074810997 ,	 -0.033871770345452322 
	 53.404582228322496 ,	 -0.027178532106603166 
	 53.406716603022893 ,	 -0.021182082268835029 
	 53.413119242955879 ,	 -0.015829872382619369 
	 53.426419124175368 ,	 -0.011026081784705901 
	 53.451066904267179 ,	 -0.0066839571877159608 
	 53.49435850585305 ,	 -0.0027373390326557987 
	 53.567817809756214 ,	 0.00087038799553487288 
	 53.689181788288899 ,	 0.0041968897723317876 
	 53.949725943333156 ,	 0.0080489924831944806 
END
BEGIN
	 0.005764838779,	 0.3398343184
	 0.005770944093,	 0.3432301326
	 0.005777089051,	 0.3466259272
	 0.005783273579,	 0.3500217021
	 0.006460587769,	 0.6448622256
	 0.007242971084,	 0.9032350614
	 0.008141784402,	 1.161411704
	 0.009103151545,	 1.419395218
	 0.0102374633,	 1.717780729
	 0.01154988454,	 2.070304803
	 0.01304996835,	 2.498219157
	 0.01483348992,	 3.059288628
	 0.01743867675,	 4.006383852
	 0.01893778052,	 4.62238189
	 0.02033401725,	 5.238297417
	 0.0216558492,	 5.854148196
	 0.023985872,	 7.005006971
	 0.02726429629,	 8.742399209
	 0.03117591469,	 10.9747723
	 0.03580963184,	 13.82856509
	 0.04143446526,	 17.5728642
	 0.04788823988,	 22.20394209
	 0.05509404762,	 27.74326235
	 0.06340827973,	 34.55441527
	 0.0733377551,	 43.19696319
	 0.08524011892,	 54.17758739
	 0.09937747241,	 67.95893125
	 0.1161345108,	 85.15424094
	 0.1361217196,	 106.6593658
	 0.1601500826,	 133.6609239
	 0.1892033265,	 167.6236708
	 0.2244797034,	 210.3448957
	 0.2675081282,	 264.1040831
	 0.3352472542,	 351.3539485
END
BEGIN
	 0.001590536282,	 7.919219741e-010
	 0.001591761555,	 7.91919376e-010
	 0.001592998154,	 7.919167541e-010
	 0.001594246054,	 7.919141082e-010
	 0.001742518523,	 7.916006116e-010
	 0.00192603805,	 7.912152069e-010
	 0.002142542586,	 7.907648186e-010
	 0.002376704755,	 7.902837755e-010
	 0.002653724569,	 7.89724961e-010
	 0.002972938845,	 7.890979697e-010
	 0.00333380757,	 7.884176084e-010
	 0.00375474904,	 7.876746305e-010
	 0.004350160696,	 7.867480555e-010
	 0.004682047855,	 7.863064937e-010
	 0.004984820912,	 7.859518452e-010
	 0.005266547095,	 7.856604137e-010
	 0.005753370112,	 7.852321425e-010
	 0.006420634596,	 7.847641343e-010
	 0.007192805919,	 7.84341546e-010
	 0.008075986707,	 7.839658659e-010
	 0.009105798434,	 7.836325436e-010
	 0.01023670285,	 7.833639398e-010
	 0.01144343914,	 7.831645672e-010
	 0.01277178504,	 7.830300018e-010
	 0.01428017612,	 7.829705275e-010
	 0.01599202182,	 7.830138076e-010
	 0.01790919124,	 7.831994937e-010
	 0.02004374458,	 7.835831539e-010
	 0.02242593559,	 7.842499543e-010
	 0.02509374746,	 7.853294219e-010
	 0.02808415339,	 7.870123254e-010
	 0.03143310771,	 7.89572219e-010
	 0.03518133387,	 7.933970302e-010
	 0.0405023156,	 8.007992301e-010
END
BEGIN
	 0.00252648018,	 3.90672267e-008
	 0.002551746679,	 3.906696479e-008
	 0.002577013178,	 3.906670546e-008
	 0.002602279676,	 3.906644866e-008
	 0.004796765615,	 3.905035729e-008
	 0.006721221009,	 3.90414887e-008
	 0.008645670324,	 3.903487578e-008
	 0.0105701145,	 3.902960413e-008
	 0.01279755886,	 3.902459615e-008
	 0.01543101575,	 3.901970608e-008
	 0.01862971954,	 3.901479799e-008
	 0.02282607949,	 3.900952826e-008
	 0.02991298302,	 3.900256899e-008
	 0.03452366491,	 3.899891538e-008
	 0.03913441544,	 3.899574796e-008
	 0.04374525069,	 3.89929604e-008
	 0.05236300846,	 3.8988527e-008
	 0.065375846,	 3.898320659e-008
	 0.08210094512,	 3.897799204e-008
