CITIFILE A.01.01
#Momentum: B.09.20.456 (*) 372.600 Nov 12 2011 
#Momentum Date and Time: Tue Jan 14 13:35:55 2014

NAME Momentum.SP

#  mode: MW    project: proj    reference: S_50

CONSTANT NBR_OF_PORTS 2

CONSTANT NORMALIZATION 1

VAR freq MAG 12

DATA S[1,1] RI
DATA S[1,2] RI
DATA S[2,1] RI
DATA S[2,2] RI
DATA S_50[1,1] RI
DATA S_50[1,2] RI
DATA S_50[2,1] RI
DATA S_50[2,2] RI
DATA S_Z0[1,1] RI
DATA S_Z0[1,2] RI
DATA S_Z0[2,1] RI
DATA S_Z0[2,2] RI
DATA GAMMA[1] RI
DATA GAMMA[2] RI
DATA Z0[1] RI
DATA Z0[2] RI
DATA PORTZ[1] RI
DATA PORTZ[2] RI

VAR_LIST_BEGIN
	 2000000000
	 2166666667
	 2250000000
	 2333333333
	 2388888889
	 2404320988
	 2435185186
	 2481481482
	 2543209877
	 2666666667
	 2833333334
	 3000000000
VAR_LIST_END

BEGIN
	-0.578486403,	 0.796766189
	-0.180930044,	 0.962851595
	 0.0917757345,	 0.966639278
	 0.510443154,	 0.756389669
	 0.197318354,	 0.156636416
	 0.172246392,	 0.255739159
	-0.0841137188,	 0.171642078
	-0.058087234,	 0.281801599
	-0.157034482,	 0.921108416
	 0.385597802,	 0.897800184
	 0.732286561,	 0.653784239
	 0.919600718,	 0.345285374
END
BEGIN
	-0.000585084636,	 0.000301979742
	-0.00331566001,	 0.0010390622
	-0.0109822846,	 0.00523750599
	-0.0512973729,	 0.0756758972
	 0.597471569,	 0.140562816
	 0.584413849,	-0.333197123
	-0.19500426,	-0.692929215
	-0.518212204,	 0.378978251
	 0.0768456889,	 0.0322170385
	 0.00808424007,	-0.00278014175
	 0.00152813187,	-0.00187982815
	 0.000285613413,	-0.00152716686
END
BEGIN
	-0.000585084636,	 0.000301979742
	-0.00331566001,	 0.0010390622
	-0.0109822846,	 0.00523750599
	-0.0512973729,	 0.0756758972
	 0.597471569,	 0.140562816
	 0.584413849,	-0.333197123
	-0.19500426,	-0.692929215
	-0.518212204,	 0.378978251
	 0.0768456889,	 0.0322170385
	 0.00808424007,	-0.00278014175
	 0.00152813187,	-0.00187982815
	 0.000285613413,	-0.00152716686
END
BEGIN
	-0.578483116,	 0.796768558
	-0.180925663,	 0.962852398
	 0.0917804658,	 0.96663879
	 0.510447497,	 0.756386506
	 0.197317502,	 0.156634234
	 0.172246858,	 0.255737907
	-0.0841139778,	 0.171640559
	-0.0580889664,	 0.281804321
	-0.15702966,	 0.921109366
	 0.38560189,	 0.897798414
	 0.73228985,	 0.653780548
	 0.919602483,	 0.345280647
END
BEGIN
	-0.578486403,	 0.796766189
	-0.180930044,	 0.962851595
	 0.0917757345,	 0.966639278
	 0.510443154,	 0.756389669
	 0.197318354,	 0.156636416
	 0.172246392,	 0.255739159
	-0.0841137188,	 0.171642078
	-0.058087234,	 0.281801599
	-0.157034482,	 0.921108416
	 0.385597802,	 0.897800184
	 0.732286561,	 0.653784239
	 0.919600718,	 0.345285374
END
BEGIN
	-0.000585084636,	 0.000301979742
	-0.00331566001,	 0.0010390622
	-0.0109822846,	 0.00523750599
	-0.0512973729,	 0.0756758972
	 0.597471569,	 0.140562816
	 0.584413849,	-0.333197123
	-0.19500426,	-0.692929215
	-0.518212204,	 0.378978251
	 0.0768456889,	 0.0322170385
	 0.00808424007,	-0.00278014175
	 0.00152813187,	-0.00187982815
	 0.000285613413,	-0.00152716686
END
BEGIN
	-0.000585084636,	 0.000301979742
	-0.00331566001,	 0.0010390622
	-0.0109822846,	 0.00523750599
	-0.0512973729,	 0.0756758972
	 0.597471569,	 0.140562816
	 0.584413849,	-0.333197123
	-0.19500426,	-0.692929215
	-0.518212204,	 0.378978251
	 0.0768456889,	 0.0322170385
	 0.00808424007,	-0.00278014175
	 0.00152813187,	-0.00187982815
	 0.000285613413,	-0.00152716686
END
BEGIN
	-0.578483116,	 0.796768558
	-0.180925663,	 0.962852398
	 0.0917804658,	 0.96663879
	 0.510447497,	 0.756386506
	 0.197317502,	 0.156634234
	 0.172246858,	 0.255737907
	-0.0841139778,	 0.171640559
	-0.0580889664,	 0.281804321
	-0.15702966,	 0.921109366
	 0.38560189,	 0.897798414
	 0.73228985,	 0.653780548
	 0.919602483,	 0.345280647
END
BEGIN
	-0.619940163,	 0.765754352
	-0.243309836,	 0.949323255
	 0.0270036363,	 0.970507576
	 0.464866961,	 0.781364431
	 0.175317687,	 0.164873516
	 0.145531192,	 0.245557178
	-0.133502725,	 0.179531017
	-0.0895134499,	 0.267708868
	-0.217171168,	 0.909882535
	 0.328451282,	 0.919658232
	 0.700673824,	 0.686251696
	 0.90975518,	 0.367408316
END
BEGIN
	-0.000575887655,	 0.000260436406
	-0.00332511185,	 0.00081326082
	-0.0113368566,	 0.00453001365
	-0.0569555941,	 0.0753331309
	 0.60348408,	 0.148558945
	 0.596060119,	-0.327022596
	-0.185898589,	-0.689865866
	-0.522166596,	 0.367759843
	 0.073741205,	 0.0363657433
	 0.00843529481,	-0.00233515467
	 0.001691177,	-0.00189795008
	 0.000343042466,	-0.00161694552
END
BEGIN
	-0.000575887655,	 0.000260436406
	-0.00332511185,	 0.00081326082
	-0.0113368566,	 0.00453001365
	-0.0569555941,	 0.0753331309
	 0.60348408,	 0.148558945
	 0.596060119,	-0.327022596
	-0.185898589,	-0.689865866
	-0.522166596,	 0.367759843
	 0.073741205,	 0.0363657433
	 0.00843529481,	-0.00233515467
	 0.001691177,	-0.00189795008
	 0.000343042466,	-0.00161694552
END
BEGIN
	-0.61993713,	 0.765756786
	-0.24330558,	 0.94932432
	 0.0270084053,	 0.970507395
	 0.46487161,	 0.7813614
	 0.175316847,	 0.164871297
	 0.145531683,	 0.245555921
	-0.133502966,	 0.179529506
	-0.0895152213,	 0.267711544
	-0.217166476,	 0.909883762
	 0.328455571,	 0.919656679
	 0.700677447,	 0.686247983
	 0.909757179,	 0.367403334
END
BEGIN
	 0.206898344,	 69.5230964
	 0.22070929,	 75.3197676
	 0.227576771,	 78.2188252
	 0.234419234,	 81.118414
	 0.238966985,	 83.0517882
	 0.240228278,	 83.5888832
	 0.242748293,	 84.6631357
	 0.246521892,	 86.2746746
	 0.251541371,	 88.4237026
	 0.261541222,	 92.7228523
	 0.275003955,	 98.52851
	 0.288389476,	 104.336955
END
BEGIN
	 0.206898344,	 69.5230964
	 0.22070929,	 75.3197676
	 0.227576771,	 78.2188252
	 0.234419234,	 81.118414
	 0.238966985,	 83.0517882
	 0.240228278,	 83.5888832
	 0.242748293,	 84.6631357
	 0.246521892,	 86.2746746
	 0.251541371,	 88.4237026
	 0.261541222,	 92.7228523
	 0.275003955,	 98.52851
	 0.288389476,	 104.336955
END
BEGIN
	 53.488501169999999 ,	 0.030355318780000001 
	 53.493118500000001 ,	 0.032930626099999999 
	 53.495528299999997 ,	 0.034111030899999999 
	 53.498005620000001 ,	 0.035229965670000002 
	 53.499694650000002 ,	 0.03594494518 
	 53.500169149999998 ,	 0.036139434519999999 
	 53.501125080000001 ,	 0.03652326862 
	 53.502576310000002 ,	 0.037086637390000003 
	 53.50454362 ,	 0.037815942079999998 
	 53.508591029999998 ,	 0.039205068599999997 
	 53.514338340000002 ,	 0.040928831919999999 
	 53.520376499999998 ,	 0.042521471370000001 
END
BEGIN
	 53.488501169999999 ,	 0.030355318780000001 
	 53.493118500000001 ,	 0.032930626099999999 
	 53.495528299999997 ,	 0.034111030899999999 
	 53.498005620000001 ,	 0.035229965670000002 
	 53.499694650000002 ,	 0.03594494518 
	 53.500169149999998 ,	 0.036139434519999999 
	 53.501125080000001 ,	 0.03652326862 
	 53.502576310000002 ,	 0.037086637390000003 
	 53.50454362 ,	 0.037815942079999998 
	 53.508591029999998 ,	 0.039205068599999997 
	 53.514338340000002 ,	 0.040928831919999999 
	 53.520376499999998 ,	 0.042521471370000001 
END
BEGIN
	 50 ,	 0 
	 50 ,	 0 
	 50 ,	 0 
	 50 ,	 0 
	 50 ,	 0 
	 50 ,	 0 
	 50 ,	 0 
	 50 ,	 0 
	 50 ,	 0 
	 50 ,	 0 
	 50 ,	 0 
	 50 ,	 0 
END
BEGIN
	 50 ,	 0 
	 50 ,	 0 
	 50 ,	 0 
	 50 ,	 0 
	 50 ,	 0 
	 50 ,	 0 
	 50 ,	 0 
	 50 ,	 0 
	 50 ,	 0 
	 50 ,	 0 
	 50 ,	 0 
	 50 ,	 0 
END
