CITIFILE A.01.01
#Momentum: B.09.20.456 (*) 372.600 Nov 12 2011 
#Momentum Date and Time: Tue Jan 14 13:35:45 2014

NAME PortSet1/TwoP0_Dsolver_data/first_odd_mode_is_1/most_even_mode_is_1/PMLG4/LS0

CONSTANT NBR_OF_PORTS 2

VAR freq MAG 6

DATA GAMMA_1[1] RI
DATA Z0_1[1,1] RI
DATA LAMBADAI_1[1,1] RI
DATA Zcir_1[1,1] RI
DATA Ycir_1[1,1] RI

VAR_LIST_BEGIN
	 2000000000
	 2020000000
	 2040000000
	 2060000000
	 2658613329
	 3000000000
VAR_LIST_END

BEGIN
	 0.2068983438,	 69.52309637
	 0.2085614286,	 70.2185984
	 0.2102227624,	 70.91412801
	 0.2118823781,	 71.60968556
	 0.2608887441,	 92.4423889
	 0.2883894762,	 104.336955
END
BEGIN
	 53.48850117374041 ,	 0.030355318768959798 
	 53.489041269401532 ,	 0.030680876806892698 
	 53.489585050474396 ,	 0.031001773716445115 
	 53.490132576482971 ,	 0.031318122366860469 
	 53.508320693382444 ,	 0.039118029034729079 
	 53.520376501339797 ,	 0.042521471376808499 
END
BEGIN
	 0.2068983438,	 69.52309637
	 0.2085614286,	 70.2185984
	 0.2102227624,	 70.91412801
	 0.2118823781,	 71.60968556
	 0.2608887441,	 92.4423889
	 0.2883894762,	 104.336955
END
BEGIN
	 0.02377373143,	 7.855064874e-010
	 0.02389343545,	 7.855174629e-010
	 0.02401257076,	 7.855287385e-010
	 0.02413114634,	 7.855403117e-010
	 0.02745612102,	 7.860093336e-010
	 0.02919369789,	 7.863692462e-010
END
BEGIN
	 1.7351169391819159 ,	 3.8966246023623006e-008 
	 1.7525999573575954 ,	 3.8966002143006856e-008 
	 1.7700862491786278 ,	 3.8965767800567554e-008 
	 1.7875758268416617 ,	 3.8965542792067476e-008 
	 2.3126233015575046 ,	 3.8962273653486104e-008 
	 2.6134713884019765 ,	 3.896254124417109e-008 
END
CITIFILE A.01.01
NAME PortSet2/TwoP0_Dsolver_data/first_odd_mode_is_1/most_even_mode_is_1/PMLG4/LS0

VAR freq MAG 6

DATA GAMMA_1[1] RI
DATA Z0_1[1,1] RI
DATA LAMBADAI_1[1,1] RI
DATA Zcir_1[1,1] RI
DATA Ycir_1[1,1] RI

VAR_LIST_BEGIN
	 2000000000
	 2020000000
	 2040000000
	 2060000000
	 2658613329
	 3000000000
VAR_LIST_END

BEGIN
	 0.2068983438,	 69.52309637
	 0.2085614286,	 70.2185984
	 0.2102227624,	 70.91412801
	 0.2118823781,	 71.60968556
	 0.2608887441,	 92.4423889
	 0.2883894762,	 104.336955
END
BEGIN
	 53.48850117374041 ,	 0.030355318768959798 
	 53.489041269401532 ,	 0.030680876806892698 
	 53.489585050474396 ,	 0.031001773716445115 
	 53.490132576482971 ,	 0.031318122366860469 
	 53.508320693382444 ,	 0.039118029034729079 
	 53.520376501339797 ,	 0.042521471376808499 
END
BEGIN
	 0.2068983438,	 69.52309637
	 0.2085614286,	 70.2185984
	 0.2102227624,	 70.91412801
	 0.2118823781,	 71.60968556
	 0.2608887441,	 92.4423889
	 0.2883894762,	 104.336955
END
BEGIN
	 0.02377373143,	 7.855064874e-010
	 0.02389343545,	 7.855174629e-010
	 0.02401257076,	 7.855287385e-010
	 0.02413114634,	 7.855403117e-010
	 0.02745612102,	 7.860093336e-010
	 0.02919369789,	 7.863692462e-010
END
BEGIN
	 1.7351169391819159 ,	 3.8966246023623006e-008 
	 1.7525999573575954 ,	 3.8966002143006856e-008 
	 1.7700862491786278 ,	 3.8965767800567554e-008 
	 1.7875758268416617 ,	 3.8965542792067476e-008 
	 2.3126233015575046 ,	 3.8962273653486104e-008 
	 2.6134713884019765 ,	 3.896254124417109e-008 
END
