CITIFILE A.01.01
#Momentum: B.09.20.456 (*) 372.600 Nov 12 2011 
#Momentum Date and Time: Tue Jan 14 16:00:30 2014

NAME Momentum.SP

#  mode: MW    project: proj    reference: S_50

CONSTANT NBR_OF_PORTS 2

CONSTANT NORMALIZATION 1

VAR freq MAG 12

DATA S[1,1] RI
DATA S[1,2] RI
DATA S[2,1] RI
DATA S[2,2] RI
DATA S_50[1,1] RI
DATA S_50[1,2] RI
DATA S_50[2,1] RI
DATA S_50[2,2] RI
DATA S_Z0[1,1] RI
DATA S_Z0[1,2] RI
DATA S_Z0[2,1] RI
DATA S_Z0[2,2] RI
DATA GAMMA[1] RI
DATA GAMMA[2] RI
DATA Z0[1] RI
DATA Z0[2] RI
DATA PORTZ[1] RI
DATA PORTZ[2] RI

VAR_LIST_BEGIN
	 2000000000
	 2166666667
	 2250000000
	 2333333333
	 2388888889
	 2416666666
	 2444444444
	 2481481481
	 2512345679
	 2666666667
	 2833333334
	 3000000000
VAR_LIST_END

BEGIN
	-0.62925272,	 0.766276907
	-0.28104874,	 0.948788878
	-0.05809862,	 0.985247594
	 0.248395903,	 0.943929962
	 0.62373215,	 0.600602271
	 0.128658909,	 0.33347133
	 0.227406891,	 0.168544636
	 0.00797358148,	 0.511076784
	-0.476700319,	 0.703485511
	 0.409521176,	 0.900937855
	 0.733236005,	 0.66730493
	 0.919050227,	 0.37325099
END
BEGIN
	-0.00014361901,	 0.000447307218
	-0.000928471367,	 0.000759926347
	-0.00319835199,	 0.00167694576
	-0.0184890536,	 0.0120547415
	-0.0718356932,	 0.189246092
	 0.665471013,	 0.120139625
	 0.213389389,	-0.755102613
	-0.701101862,	 0.0716511116
	 0.196864449,	 0.217442025
	 0.0043412334,	-0.00193841829
	 0.000873954868,	-0.0012489
	 0.000143495864,	-0.00120094961
END
BEGIN
	-0.00014361901,	 0.000447307218
	-0.000928471367,	 0.000759926347
	-0.00319835199,	 0.00167694576
	-0.0184890536,	 0.0120547415
	-0.0718356932,	 0.189246092
	 0.665471013,	 0.120139625
	 0.213389389,	-0.755102613
	-0.701101862,	 0.0716511116
	 0.196864449,	 0.217442025
	 0.0043412334,	-0.00193841829
	 0.000873954868,	-0.0012489
	 0.000143495864,	-0.00120094961
END
BEGIN
	-0.618102084,	 0.775398501
	-0.268766173,	 0.952463347
	-0.0468308195,	 0.986001112
	 0.256539566,	 0.942041727
	 0.625530708,	 0.60091732
	 0.138606922,	 0.336465113
	 0.228787871,	 0.172033352
	 0.0183241352,	 0.511473792
	-0.46660106,	 0.710234072
	 0.417290124,	 0.89750333
	 0.736697862,	 0.663643702
	 0.920081179,	 0.370937873
END
BEGIN
	-0.62925272,	 0.766276907
	-0.28104874,	 0.948788878
	-0.05809862,	 0.985247594
	 0.248395903,	 0.943929962
	 0.62373215,	 0.600602271
	 0.128658909,	 0.33347133
	 0.227406891,	 0.168544636
	 0.00797358148,	 0.511076784
	-0.476700319,	 0.703485511
	 0.409521176,	 0.900937855
	 0.733236005,	 0.66730493
	 0.919050227,	 0.37325099
END
BEGIN
	-0.00014361901,	 0.000447307218
	-0.000928471367,	 0.000759926347
	-0.00319835199,	 0.00167694576
	-0.0184890536,	 0.0120547415
	-0.0718356932,	 0.189246092
	 0.665471013,	 0.120139625
	 0.213389389,	-0.755102613
	-0.701101862,	 0.0716511116
	 0.196864449,	 0.217442025
	 0.0043412334,	-0.00193841829
	 0.000873954868,	-0.0012489
	 0.000143495864,	-0.00120094961
END
BEGIN
	-0.00014361901,	 0.000447307218
	-0.000928471367,	 0.000759926347
	-0.00319835199,	 0.00167694576
	-0.0184890536,	 0.0120547415
	-0.0718356932,	 0.189246092
	 0.665471013,	 0.120139625
	 0.213389389,	-0.755102613
	-0.701101862,	 0.0716511116
	 0.196864449,	 0.217442025
	 0.0043412334,	-0.00193841829
	 0.000873954868,	-0.0012489
	 0.000143495864,	-0.00120094961
END
BEGIN
	-0.618102084,	 0.775398501
	-0.268766173,	 0.952463347
	-0.0468308195,	 0.986001112
	 0.256539566,	 0.942041727
	 0.625530708,	 0.60091732
	 0.138606922,	 0.336465113
	 0.228787871,	 0.172033352
	 0.0183241352,	 0.511473792
	-0.46660106,	 0.710234072
	 0.417290124,	 0.89750333
	 0.736697862,	 0.663643702
	 0.920081179,	 0.370937873
END
BEGIN
	-0.669895993,	 0.731509481
	-0.343902227,	 0.928086921
	-0.12675286,	 0.978857109
	 0.183468485,	 0.958259716
	 0.587564433,	 0.62536198
	 0.105230922,	 0.341615302
	 0.174779071,	 0.159260152
	-0.019136911,	 0.507435614
	-0.520602745,	 0.68163035
	 0.350587566,	 0.925158257
	 0.700036756,	 0.701427303
	 0.9081573,	 0.397701933
END
BEGIN
	-0.000160302268,	 0.000420155648
	-0.000957226472,	 0.000682765194
	-0.0032897735,	 0.00144515377
	-0.0195619397,	 0.0109761799
	-0.0833286448,	 0.194082644
	 0.668181664,	 0.137452115
	 0.22575844,	-0.763131667
	-0.703547783,	 0.0462789778
	 0.179736965,	 0.219442553
	 0.00457945125,	-0.00170459283
	 0.000980379145,	-0.00126826992
	 0.00018702143,	-0.00127534348
END
BEGIN
	-0.000160302268,	 0.000420155648
	-0.000957226472,	 0.000682765194
	-0.0032897735,	 0.00144515377
	-0.0195619397,	 0.0109761799
	-0.0833286448,	 0.194082644
	 0.668181664,	 0.137452115
	 0.22575844,	-0.763131667
	-0.703547783,	 0.0462789778
	 0.179736965,	 0.219442553
	 0.00457945125,	-0.00170459283
	 0.000980379145,	-0.00126826992
	 0.00018702143,	-0.00127534348
END
BEGIN
	-0.659702333,	 0.74080676
	-0.332122645,	 0.93248051
	-0.115610891,	 0.980379147
	 0.191862594,	 0.956892868
	 0.589430079,	 0.625767057
	 0.115197271,	 0.344878565
	 0.176138513,	 0.162813422
	-0.00879471208,	 0.50820666
	-0.511165691,	 0.688635614
	 0.358788619,	 0.922140012
	 0.703860629,	 0.697749634
	 0.909322934,	 0.395263629
END
BEGIN
	 0.0959363132,	 69.4092698
	 0.100426622,	 75.2025064
	 0.102627467,	 78.1000307
	 0.104799039,	 80.998194
	 0.106230487,	 82.9306716
	 0.10694133,	 83.8970241
	 0.107648919,	 84.8634538
	 0.108587309,	 86.1521487
	 0.10936488,	 87.226169
	 0.113194056,	 92.597779
	 0.117265826,	 98.4016338
	 0.121242067,	 104.208537
END
BEGIN
	 0.0959360869,	 69.4093151
	 0.100426388,	 75.2025556
	 0.102627228,	 78.1000818
	 0.104798797,	 80.998247
	 0.106230242,	 82.930726
	 0.106941084,	 83.8970791
	 0.107648672,	 84.8635095
	 0.10858706,	 86.1522052
	 0.10936463,	 87.2262263
	 0.1131938,	 92.59784
	 0.117265563,	 98.4016987
	 0.121241798,	 104.208606
END
BEGIN
	 53.576641379999998 ,	 -0.054980983529999999 
	 53.576929569999997 ,	 -0.052463005469999997 
	 53.577287769999998 ,	 -0.051312208030000001 
	 53.577787890000003 ,	 -0.050223406650000003 
	 53.578200129999999 ,	 -0.049528773290000001 
	 53.578429890000002 ,	 -0.049190179780000003 
	 53.578675410000002 ,	 -0.048857136990000001 
	 53.579027289999999 ,	 -0.048421391760000002 
	 53.579341919999997 ,	 -0.048065250310000002 
	 53.581203360000003 ,	 -0.046372707040000002 
	 53.583655020000002 ,	 -0.04471440518 
	 53.586626989999999 ,	 -0.04318853374 
END
BEGIN
	 53.576142709999999 ,	 -0.054980232779999999 
	 53.576430899999998 ,	 -0.052462287269999998 
	 53.576789089999998 ,	 -0.051311504709999997 
	 53.577289210000004 ,	 -0.050222717399999998 
	 53.577701449999999 ,	 -0.049528093010000003 
	 53.577931210000003 ,	 -0.049189503879999999 
	 53.578176730000003 ,	 -0.0488564654 
	 53.578528609999999 ,	 -0.048420725790000001 
	 53.578843229999997 ,	 -0.04806458894 
	 53.580704660000002 ,	 -0.046372067570000002 
	 53.583156299999999 ,	 -0.044713787159999997 
	 53.586128240000001 ,	 -0.043187935439999998 
END
BEGIN
	 50 ,	 0 
	 50 ,	 0 
	 50 ,	 0 
	 50 ,	 0 
	 50 ,	 0 
	 50 ,	 0 
	 50 ,	 0 
	 50 ,	 0 
	 50 ,	 0 
	 50 ,	 0 
	 50 ,	 0 
	 50 ,	 0 
END
BEGIN
	 50 ,	 0 
	 50 ,	 0 
	 50 ,	 0 
	 50 ,	 0 
	 50 ,	 0 
	 50 ,	 0 
	 50 ,	 0 
	 50 ,	 0 
	 50 ,	 0 
	 50 ,	 0 
	 50 ,	 0 
	 50 ,	 0 
END
