CITIFILE A.01.01
#Momentum: B.11.20.082 (*) 2014.01 Feb 25 2014 
#Momentum Date and Time: Wed Jan 14 12:24:22 2015

NAME Momentum.SP

#  mode: MW    project: proj

CONSTANT NBR_OF_PORTS 4

CONSTANT NORMALIZATION 1.000004971

VAR freq MAG 50

DATA S[1,1] RI
DATA S[1,2] RI
DATA S[1,3] RI
DATA S[1,4] RI
DATA S[2,1] RI
DATA S[2,2] RI
DATA S[2,3] RI
DATA S[2,4] RI
DATA S[3,1] RI
DATA S[3,2] RI
DATA S[3,3] RI
DATA S[3,4] RI
DATA S[4,1] RI
DATA S[4,2] RI
DATA S[4,3] RI
DATA S[4,4] RI
DATA PORTZ[1] RI
DATA PORTZ[2] RI
DATA PORTZ[3] RI
DATA PORTZ[4] RI

VAR_LIST_BEGIN
	 0
	 204082000
	 408164000
	 612246000
	 816328000
	 1020410000
	 1224492000
	 1428574000
	 1632656000
	 1836738000
	 2040820000
	 2244902000
	 2448984000
	 2653066000
	 2857148000
	 3061230000
	 3265312000
	 3469394000
	 3673476000
	 3877558000
	 4081640000
	 4285722000
	 4489804000
	 4693886000
	 4897968000
	 5102050000
	 5306132000
	 5510214000
	 5714296000
	 5918378000
	 6122460000
	 6326542000
	 6530624000
	 6734706000
	 6938788000
	 7142870000
	 7346952000
	 7551034000
	 7755116000
	 7959198000
	 8163280000
	 8367362000
	 8571444000
	 8775526000
	 8979608000
	 9183690000
	 9387772000
	 9591854000
	 9795936000
	 1e+010
VAR_LIST_END

BEGIN
	 2.87279575e-035,	 0
	 0.00754044627,	 0.033037095
	 0.0288719614,	 0.0600365323
	 0.060411145,	 0.0760742606
	 0.0970234714,	 0.0781468734
	 0.133000854,	 0.0655412493
	 0.163020242,	 0.0397362792
	 0.182898453,	 0.00395400103
	 0.190053222,	-0.0374879442
	 0.183675245,	-0.0798801948
	 0.164617897,	-0.118783981
	 0.135085352,	-0.1505536
	 0.0981869877,	-0.172676843
	 0.0574515248,	-0.183921225
	 0.0163502426,	-0.18434091
	-0.02217902,	-0.174970792
	-0.0558440389,	-0.15739514
	-0.0831932826,	-0.13379079
	-0.10365514,	-0.106401537
	-0.117354897,	-0.0771551978
	-0.124898723,	-0.0475485726
	-0.127044543,	-0.0185411536
	-0.124514121,	 0.00932140151
	-0.11779179,	 0.0357658851
	-0.107070307,	 0.0605773682
	-0.0923756362,	 0.0834339459
	-0.073555359,	 0.103632573
	-0.0507147805,	 0.120277719
	-0.0242630969,	 0.132191044
	 0.00491302449,	 0.13797932
	 0.0352663733,	 0.136546112
	 0.0646606988,	 0.127133098
	 0.0905783992,	 0.109865263
	 0.110318425,	 0.0856686808
	 0.121393903,	 0.0565774802
	 0.121988169,	 0.0256720634
	 0.111425116,	-0.00314035392
	 0.0905639501,	-0.0255483472
	 0.062013711,	-0.0374892613
	 0.0301301093,	-0.0358721379
	 0.000712814958,	-0.0194877185
	-0.0199564999,	 0.0103550499
	-0.0262714799,	 0.0495535342
	-0.014653989,	 0.0916635542
	 0.015449814,	 0.128986573
	 0.0612188609,	 0.154106456
	 0.116962579,	 0.161404358
	 0.175263349,	 0.148074427
	 0.228401886,	 0.114438716
	 0.269542354,	 0.0635898418
END
BEGIN
	 1 ,	 -0 
	 0.975049908,	-0.218339886
	 0.901854149,	-0.424761829
	 0.785127853,	-0.608436686
	 0.631992726,	-0.760454352
	 0.451129382,	-0.87425801
	 0.251965582,	-0.945695459
	 0.0440579804,	-0.972803798
	-0.163280393,	-0.955499805
	-0.361169435,	-0.895356513
	-0.541289931,	-0.795441511
	-0.696024157,	-0.660255009
	-0.818664504,	-0.495681132
	-0.903676005,	-0.308901559
	-0.947015655,	-0.108275446
	-0.946596444,	 0.0968621011
	-0.902289076,	 0.297115654
	-0.81609706,	 0.483098179
	-0.692118331,	 0.646020402
	-0.536296409,	 0.778283701
	-0.356117763,	 0.873807454
	-0.160147651,	 0.928369454
	 0.0424069578,	 0.939734126
	 0.242152521,	 0.90772555
	 0.430020838,	 0.834154422
	 0.597613508,	 0.722653606
	 0.737534638,	 0.578515801
	 0.843744824,	 0.408292083
	 0.91167176,	 0.219596908
	 0.938407052,	 0.0207464682
	 0.922736877,	-0.179622144
	 0.865151924,	-0.372826134
	 0.767760354,	-0.5504271
	 0.634252287,	-0.704492542
	 0.469772504,	-0.827802192
	 0.280841511,	-0.914055537
	 0.075293446,	-0.958083193
	-0.137727076,	-0.956130817
	-0.347973206,	-0.906270023
	-0.544280422,	-0.808876638
	-0.715091443,	-0.667204432
	-0.849413437,	-0.487787579
	-0.938011626,	-0.280469874
	-0.974705916,	-0.057772785
	-0.957334252,	 0.166313487
	-0.888048313,	 0.377918761
	-0.77281058,	 0.564921041
	-0.620281485,	 0.717951076
	-0.440487644,	 0.830802293
	-0.243716911,	 0.900159193
END
BEGIN
	 8.61273192e-020,	 0
	 0.00465519595,	 0.0197466091
	 0.0179448423,	 0.036046451
	 0.0379886665,	 0.0460140134
	 0.0621009282,	 0.0477217739
	 0.0872666844,	 0.0403252518
	 0.110539708,	 0.0239744441
	 0.129304196,	-0.000377337376
	 0.141413357,	-0.0311807223
	 0.145239126,	-0.0664934801
	 0.139664892,	-0.10409304
	 0.12407115,	-0.141566175
	 0.0983607928,	-0.176342288
	 0.0630437106,	-0.205760041
	 0.0193094713,	-0.227139305
	-0.0308003204,	-0.237877108
	-0.0844745074,	-0.236331567
	-0.138434245,	-0.221483404
	-0.189115365,	-0.193274217
	-0.233011556,	-0.152661764
	-0.266950541,	-0.101575618
	-0.288397919,	-0.0427554487
	-0.295632646,	 0.0204567558
	-0.287879294,	 0.0843822269
	-0.265345517,	 0.145271766
	-0.229191,	 0.199568747
	-0.181479449,	 0.244119467
	-0.124947049,	 0.276450071
	-0.062869958,	 0.294858824
	 0.00119056614,	 0.298561485
	 0.0636599165,	 0.287674008
	 0.12116117,	 0.263173386
	 0.17070432,	 0.226780496
	 0.209801737,	 0.180836258
	 0.236577476,	 0.128173136
	 0.249833604,	 0.0720006383
	 0.24912832,	 0.0158180423
	 0.234914517,	-0.0367056312
	 0.208693063,	-0.0819801293
	 0.173123229,	-0.116808918
	 0.131984158,	-0.138894713
	 0.0898377094,	-0.147395916
	 0.0513513875,	-0.143299224
	 0.0204304554,	-0.129398284
	-0.000580269007,	-0.109713207
	-0.0112756845,	-0.0886814051
	-0.0130644324,	-0.0701640431
	-0.00850771342,	-0.0567574185
	-0.000578469068,	-0.0496341543
	 0.00801197571,	-0.0487487941
END
BEGIN
	-8.61892717e-020,	-0
	-0.002137624,	-0.00639483116
	-0.00798944682,	-0.0106447179
	-0.0160347814,	-0.0111672769
	-0.0242159854,	-0.00731957139
	-0.0304708754,	 0.000503112002
	-0.0332121161,	 0.0110463624
	-0.0316161091,	 0.0225646014
	-0.0256786839,	 0.0332323656
	-0.0161004037,	 0.0414576771
	-0.00407962746,	 0.0461169449
	 0.00891530531,	 0.0466482888
	 0.0213789696,	 0.0430852259
	 0.0319996362,	 0.0359954247
	 0.0398129751,	 0.026366075
	 0.0443162506,	 0.0154655658
	 0.0456338029,	 0.00445990727
	 0.0442646195,	-0.0057447499
	 0.0409210825,	-0.0146287408
	 0.036291539,	-0.0220573252
	 0.030891629,	-0.0281911023
	 0.0249527659,	-0.0332946687
	 0.018444922,	-0.0375866644
	 0.011176632,	-0.0410631081
	 0.00298113521,	-0.0434748925
	-0.00614052267,	-0.0443756888
	-0.0159123254,	-0.0431884968
	-0.0257065407,	-0.039510676
	-0.0346795768,	-0.0331502309
	-0.041818788,	-0.0243309955
	-0.0462553839,	-0.013717335
	-0.0474047855,	-0.00237207199
	-0.0452022202,	 0.00845252961
	-0.0401079813,	 0.0174965562
	-0.0331595413,	 0.0237848252
	-0.0257875173,	 0.0268899512
	-0.0195462768,	 0.0271302385
	-0.0157317715,	 0.0256075861
	-0.0149899733,	 0.0240447477
	-0.0169442487,	 0.0244613482
	-0.0200697529,	 0.0285756772
	-0.0219170642,	 0.0371437675
	-0.019712242,	 0.0494821285
	-0.0112075812,	 0.0633959145
	 0.00452527135,	 0.0756206616
	 0.0266770684,	 0.0826737688
	 0.0528386529,	 0.0817861585
	 0.0796142584,	 0.0715419884
	 0.103407481,	 0.0520790899
	 0.121068664,	 0.024904269
END
BEGIN
	 1 ,	 -0 
	 0.975049908,	-0.218339886
	 0.901854149,	-0.424761829
	 0.785127853,	-0.608436686
	 0.631992726,	-0.760454352
	 0.451129382,	-0.87425801
	 0.251965582,	-0.945695459
	 0.0440579809,	-0.972803799
	-0.163280393,	-0.955499805
	-0.361169435,	-0.895356513
	-0.541289931,	-0.795441511
	-0.696024157,	-0.660255009
	-0.818664504,	-0.495681132
	-0.903676005,	-0.308901559
	-0.947015656,	-0.108275447
	-0.946596444,	 0.0968621011
	-0.902289076,	 0.297115654
	-0.81609706,	 0.483098179
	-0.692118331,	 0.646020402
	-0.536296409,	 0.778283701
	-0.356117763,	 0.873807454
	-0.160147651,	 0.928369454
	 0.0424069578,	 0.939734126
	 0.242152521,	 0.907725551
	 0.430020838,	 0.834154421
	 0.597613507,	 0.722653603
	 0.737534638,	 0.578515801
	 0.843744823,	 0.408292083
	 0.91167176,	 0.219596908
	 0.938407052,	 0.0207464682
	 0.922736877,	-0.179622144
	 0.865151924,	-0.372826134
	 0.767760354,	-0.5504271
	 0.634252287,	-0.704492542
	 0.469772504,	-0.827802192
	 0.280841511,	-0.914055537
	 0.075293446,	-0.958083193
	-0.137727076,	-0.956130817
	-0.347973206,	-0.906270023
	-0.544280422,	-0.808876638
	-0.715091443,	-0.667204432
	-0.849413437,	-0.487787579
	-0.938011626,	-0.280469874
	-0.974705916,	-0.057772785
	-0.957334252,	 0.166313487
	-0.888048313,	 0.377918761
	-0.77281058,	 0.564921041
	-0.620281485,	 0.717951076
	-0.440487644,	 0.830802293
	-0.243716911,	 0.900159193
END
BEGIN
	 5.55045272e-037,	 0
	 0.00753683794,	 0.0330379128
	 0.0288577659,	 0.060043303
	 0.0603831986,	 0.0760962391
	 0.0969837358,	 0.0781956012
	 0.132957198,	 0.0656282568
	 0.162986339,	 0.0398706081
	 0.1828928,	 0.00413997625
	 0.190097432,	-0.0372524713
	 0.183791804,	-0.0796053089
	 0.164827465,	-0.118488068
	 0.135403899,	-0.15026303
	 0.0986229331,	-0.172424697
	 0.0580034289,	-0.18374501
	 0.0170048821,	-0.184279506
	-0.0214468949,	-0.175060415
	-0.0550716775,	-0.157665917
	-0.0824274658,	-0.134262795
	-0.102949708,	-0.107081821
	-0.116766469,	-0.0780358517
	-0.124482543,	-0.0486058831
	-0.126849873,	-0.0197362553
	-0.124580158,	 0.00804077836
	-0.118144103,	 0.0344623344
	-0.107718322,	 0.0593202309
	-0.0933110653,	 0.0822948434
	-0.0747519315,	 0.102680658
	-0.0521290322,	 0.119575399
	-0.0258363016,	 0.131789595
	 0.00325177759,	 0.137915096
	 0.0335964205,	 0.136837754
	 0.0630655128,	 0.12777956
	 0.0891402043,	 0.1108448
	 0.109113444,	 0.0869392188
	 0.120486927,	 0.0580781039
	 0.121427662,	 0.0273258441
	 0.111238779,	-0.00142210789
	 0.0907551195,	-0.0238606319
	 0.0625592979,	-0.0359262571
	 0.0309803848,	-0.0345192916
	 0.0017939453,	-0.0184130615
	-0.0187363439,	 0.0111091044
	-0.0250129865,	 0.0499759998
	-0.0134548954,	 0.091777004
	 0.0165066788,	 0.128844179
	 0.0620755907,	 0.153784541
	 0.117592379,	 0.160991496
	 0.175671796,	 0.14765962
	 0.228623859,	 0.114100645
	 0.269636051,	 0.0633888165
END
BEGIN
	-8.61892717e-020,	-0
	-0.00213711625,	-0.0063949771
	-0.00798764216,	-0.0106458653
	-0.0160316239,	-0.0111708695
	-0.0242124049,	-0.00732718169
	-0.0304688041,	 0.000490316426
	-0.0332142437,	 0.0110281154
	-0.0316255147,	 0.0225418744
	-0.0256982072,	 0.0332075561
	-0.0161321007,	 0.0414345352
	-0.0041241976,	 0.0461002949
	 0.00885898911,	 0.0466435141
	 0.0213141576,	 0.0430976453
	 0.0319317168,	 0.0360293852
	 0.0397492521,	 0.0264241609
	 0.0442651941,	 0.0155477234
	 0.0456041428,	 0.0045630914
	 0.044264197,	-0.00562672993
	 0.0409557377,	-0.0145049351
	 0.036364078,	-0.0219388243
	 0.0310011539,	-0.0280900099
	 0.0250943914,	-0.0332228047
	 0.0186099449,	-0.0375542172
	 0.0113531654,	-0.0410774405
	 0.00315505116,	-0.0435395117
	-0.00598427085,	-0.0444896886
	-0.0157882851,	-0.0433463457
	-0.0256273563,	-0.0397024471
	-0.0346546487,	-0.0333623365
	-0.0418532333,	-0.0245472682
	-0.0463493508,	-0.0139203872
	-0.0475532208,	-0.00254482307
	-0.0453950339,	 0.00832527591
	-0.0403307101,	 0.0174266679
	-0.0333943925,	 0.0237795215
	-0.0260148207,	 0.0269508085
	-0.0197462622,	 0.0272525764
	-0.015886653,	 0.0257803946
	-0.0150861591,	 0.0242513561
	-0.0169744419,	 0.024680977
	-0.0200344663,	 0.0287859187
	-0.0218250415,	 0.0373238342
	-0.019579351,	 0.0496161866
	-0.0110541561,	 0.0634757575
	 0.00467813557,	 0.0756467996
	 0.0268112617,	 0.0826547253
	 0.0529419317,	 0.0817361049
	 0.0796816082,	 0.0714775615
	 0.103440915,	 0.0520162329
	 0.121075903,	 0.0248557877
END
BEGIN
	 8.61273192e-020,	 0
	 0.00465536036,	 0.0197465871
	 0.0179455391,	 0.0360462538
	 0.0379902282,	 0.0460132893
	 0.0621035756,	 0.0477199224
	 0.0872703767,	 0.0403214286
	 0.110543986,	 0.0239676474
	 0.129308041,	-0.000388008113
	 0.141415228,	-0.0311958783
	 0.145237049,	-0.0665131369
	 0.139656709,	-0.104116413
	 0.124054845,	-0.141591592
	 0.0983349255,	-0.176367184
	 0.0630076371,	-0.205781276
	 0.0192637629,	-0.227153406
	-0.0308540159,	-0.237880832
	-0.0845334614,	-0.23632222
	-0.138495069,	-0.221459159
	-0.189174197,	-0.193234253
	-0.233064468,	-0.152606213
	-0.266993715,	-0.101505504
	-0.288427756,	-0.042672586
	-0.295645828,	 0.0205498086
	-0.287872866,	 0.084482126
	-0.265317059,	 0.145374302
	-0.229138909,	 0.199668853
	-0.181403316,	 0.244211284
	-0.124848062,	 0.276527268
	-0.0627511675,	 0.294915088
	 0.00132403718,	 0.29859119
	 0.0638011504,	 0.287672989
	 0.121301921,	 0.263139588
	 0.170835804,	 0.226714455
	 0.209915566,	 0.180741257
	 0.236666657,	 0.128054906
	 0.249893317,	 0.0718667017
	 0.249156384,	 0.0156767359
	 0.234911347,	-0.0368461817
	 0.208661197,	-0.0821129224
	 0.173066462,	-0.116928509
	 0.131906728,	-0.138997164
	 0.0897437247,	-0.147478298
	 0.0512448928,	-0.143358917
	 0.0203159891,	-0.12943265
	-0.000696897182,	-0.109719895
	-0.0113870649,	-0.0886592628
	-0.0131618418,	-0.070114325
	-0.00858221193,	-0.0566847291
	-0.000622488008,	-0.0495466868
	 0.00800305539,	-0.0486577669
END
BEGIN
	 8.61273192e-020,	 0
	 0.00465519595,	 0.0197466091
	 0.0179448423,	 0.036046451
	 0.0379886665,	 0.0460140134
	 0.0621009282,	 0.0477217739
	 0.0872666844,	 0.0403252518
	 0.110539708,	 0.0239744441
	 0.129304196,	-0.000377337376
	 0.141413357,	-0.0311807223
	 0.145239126,	-0.0664934801
	 0.139664892,	-0.10409304
	 0.12407115,	-0.141566175
	 0.0983607928,	-0.176342288
	 0.0630437106,	-0.205760041
	 0.0193094713,	-0.227139305
	-0.0308003204,	-0.237877108
	-0.0844745074,	-0.236331567
	-0.138434245,	-0.221483404
	-0.189115365,	-0.193274217
	-0.233011556,	-0.152661764
	-0.266950541,	-0.101575618
	-0.288397919,	-0.0427554487
	-0.295632646,	 0.0204567558
	-0.287879294,	 0.0843822269
	-0.265345517,	 0.145271766
	-0.229191,	 0.199568747
	-0.181479449,	 0.244119467
	-0.124947049,	 0.276450071
	-0.062869958,	 0.294858824
	 0.00119056614,	 0.298561485
	 0.0636599165,	 0.287674008
	 0.12116117,	 0.263173386
	 0.17070432,	 0.226780496
	 0.209801737,	 0.180836258
	 0.236577476,	 0.128173136
	 0.249833604,	 0.0720006383
	 0.24912832,	 0.0158180423
	 0.234914517,	-0.0367056312
	 0.208693063,	-0.0819801293
	 0.173123229,	-0.116808918
	 0.131984158,	-0.138894713
	 0.0898377094,	-0.147395916
	 0.0513513875,	-0.143299224
	 0.0204304554,	-0.129398284
	-0.000580269007,	-0.109713207
	-0.0112756845,	-0.0886814051
	-0.0130644324,	-0.0701640431
	-0.00850771342,	-0.0567574185
	-0.000578469068,	-0.0496341543
	 0.00801197571,	-0.0487487941
END
BEGIN
	-8.61892717e-020,	-0
	-0.00213711625,	-0.0063949771
	-0.00798764216,	-0.0106458653
	-0.0160316239,	-0.0111708695
	-0.0242124049,	-0.00732718169
	-0.0304688041,	 0.000490316427
	-0.0332142437,	 0.0110281154
	-0.0316255147,	 0.0225418745
	-0.0256982072,	 0.0332075561
	-0.0161321007,	 0.0414345352
	-0.0041241976,	 0.0461002949
	 0.00885898913,	 0.0466435141
	 0.0213141577,	 0.0430976453
	 0.0319317168,	 0.0360293852
	 0.0397492515,	 0.0264241602
	 0.0442651941,	 0.0155477234
	 0.0456041421,	 0.00456309112
	 0.0442641968,	-0.00562672994
	 0.0409557377,	-0.0145049351
	 0.0363640778,	-0.0219388242
	 0.0310011539,	-0.0280900099
	 0.0250943914,	-0.0332228047
	 0.0186099449,	-0.0375542172
	 0.0113531654,	-0.0410774407
	 0.00315505116,	-0.0435395115
	-0.00598427072,	-0.0444896879
	-0.015788285,	-0.0433463456
	-0.0256273562,	-0.039702447
	-0.0346546487,	-0.0333623365
	-0.0418532334,	-0.0245472682
	-0.0463493512,	-0.0139203873
	-0.0475532209,	-0.00254482307
	-0.0453950339,	 0.00832527591
	-0.0403307101,	 0.0174266679
	-0.0333943925,	 0.0237795216
	-0.0260148207,	 0.0269508085
	-0.0197462622,	 0.0272525764
	-0.015886653,	 0.0257803947
	-0.0150861591,	 0.0242513561
	-0.0169744419,	 0.024680977
	-0.0200344663,	 0.0287859187
	-0.0218250415,	 0.0373238342
	-0.0195793508,	 0.0496161867
	-0.0110541561,	 0.0634757575
	 0.00467813553,	 0.0756467996
	 0.0268112617,	 0.0826547253
	 0.0529419317,	 0.0817361049
	 0.0796816082,	 0.0714775615
	 0.103440915,	 0.0520162329
	 0.121075903,	 0.0248557877
END
BEGIN
	-1.4281491e-034,	 0
	 0.00754745165,	 0.0330704634
	 0.0289004205,	 0.0601019538
	 0.060471707,	 0.0761609228
	 0.0971223341,	 0.0782421451
	 0.133139591,	 0.065632137
	 0.163196595,	 0.0398108155
	 0.183107138,	 0.00400272188
	 0.190287578,	-0.0374724936
	 0.183927923,	-0.0799031721
	 0.164881427,	-0.118848779
	 0.135352334,	-0.150662358
	 0.0984503915,	-0.172830754
	 0.0577039909,	-0.184120596
	 0.0165844788,	-0.184585319
	-0.0219704202,	-0.175258377
	-0.0556683671,	-0.157723279
	-0.0830577035,	-0.134155778
	-0.103566535,	-0.106798406
	-0.117319345,	-0.0775776552
	-0.124921446,	-0.0479892563
	-0.127129444,	-0.0189917279
	-0.124663687,	 0.00886982979
	-0.11800696,	 0.0353222206
	-0.10735064,	 0.0601503034
	-0.0927200524,	 0.0830316271
	-0.0739621079,	 0.103262061
	-0.0511824301,	 0.119946141
	-0.0247905888,	 0.131905539
	 0.0043261338,	 0.137747569
	 0.0346201725,	 0.136377755
	 0.0639555763,	 0.127040248
	 0.089816337,	 0.109863389
	 0.109504507,	 0.0857769135
	 0.120538542,	 0.0568184737
	 0.121109644,	 0.0260708883
	 0.110552211,	-0.00255864162
	 0.0897379788,	-0.024762864
	 0.0612889714,	-0.0364889999
	 0.0295716878,	-0.0346629543
	 0.000390111332,	-0.0180990203
	-0.0199798867,	 0.0118667165
	-0.0259503963,	 0.0511061094
	-0.0139730944,	 0.0931580207
	 0.016469746,	 0.130320878
	 0.0625223323,	 0.155191316
	 0.118468453,	 0.162176201
	 0.176878436,	 0.148502086
	 0.230034691,	 0.114522671
	 0.271113841,	 0.063356287
END
BEGIN
	 1 ,	 -0 
	 0.975041742,	-0.218371056
	 0.901821002,	-0.424821018
	 0.785058126,	-0.608509813
	 0.631881059,	-0.760524768
	 0.450976996,	-0.874308773
	 0.25177932,	-0.945711657
	 0.0438492533,	-0.972773999
	-0.163498094,	-0.955416892
	-0.361381507,	-0.895217551
	-0.541481991,	-0.795247327
	-0.696182709,	-0.660009585
	-0.818777088,	-0.495391276
	-0.903731804,	-0.308576247
	-0.947005316,	-0.107926075
	-0.946512805,	 0.097221918
	-0.902127374,	 0.297470706
	-0.815855481,	 0.483431482
	-0.691798769,	 0.6463137
	-0.535905024,	 0.778518423
	-0.355665362,	 0.87396575
	-0.159649525,	 0.928435573
	 0.0429314958,	 0.939695604
	 0.242680746,	 0.907574348
	 0.430528261,	 0.833887636
	 0.598074806,	 0.722273819
	 0.737924992,	 0.578031326
	 0.844041491,	 0.407715727
	 0.911854319,	 0.218945827
	 0.938457868,	 0.0200417345
	 0.922641278,	-0.18035627
	 0.864898323,	-0.373561863
	 0.767340739,	-0.551132779
	 0.633663305,	-0.705131981
	 0.469017517,	-0.828334206
	 0.279933677,	-0.91443432
	 0.0742593628,	-0.958260317
	-0.138843537,	-0.956059521
	-0.349108932,	-0.905912006
	-0.545353558,	-0.808211153
	-0.716007361,	-0.666237981
	-0.850075718,	-0.486561216
	-0.938337371,	-0.279060791
	-0.974641454,	-0.056287709
	-0.956866463,	 0.167752162
	-0.887207961,	 0.379191385
	-0.771666332,	 0.565927923
	-0.618927299,	 0.718624189
	-0.439027775,	 0.831109253
	-0.24225248,	 0.900100844
END
BEGIN
	-8.61892717e-020,	-0
	-0.002137624,	-0.00639483116
	-0.00798944682,	-0.0106447179
	-0.0160347814,	-0.0111672769
	-0.0242159854,	-0.00731957139
	-0.0304708754,	 0.000503112
	-0.0332121161,	 0.0110463624
	-0.0316161091,	 0.0225646013
	-0.0256786839,	 0.0332323656
	-0.0161004037,	 0.0414576771
	-0.00407962746,	 0.0461169449
	 0.00891530529,	 0.0466482887
	 0.0213789695,	 0.0430852259
	 0.0319996362,	 0.0359954247
	 0.0398129758,	 0.0263660758
	 0.0443162506,	 0.0154655658
	 0.0456338036,	 0.00445990755
	 0.0442646197,	-0.00574474988
	 0.0409210825,	-0.0146287408
	 0.0362915392,	-0.0220573253
	 0.0308916291,	-0.0281911023
	 0.0249527659,	-0.0332946687
	 0.018444922,	-0.0375866644
	 0.011176632,	-0.041063108
	 0.00298113521,	-0.0434748927
	-0.00614052281,	-0.0443756894
	-0.0159123255,	-0.0431884969
	-0.0257065408,	-0.0395106762
	-0.0346795768,	-0.0331502309
	-0.041818788,	-0.0243309955
	-0.0462553835,	-0.0137173349
	-0.0474047853,	-0.00237207198
	-0.0452022202,	 0.00845252961
	-0.0401079813,	 0.0174965562
	-0.0331595413,	 0.0237848252
	-0.0257875173,	 0.0268899512
	-0.0195462768,	 0.0271302385
	-0.0157317715,	 0.0256075861
	-0.0149899733,	 0.0240447478
	-0.0169442487,	 0.0244613482
	-0.0200697529,	 0.0285756772
	-0.0219170642,	 0.0371437675
	-0.0197122422,	 0.0494821284
	-0.0112075812,	 0.0633959145
	 0.00452527138,	 0.0756206616
	 0.0266770684,	 0.0826737688
