CITIFILE A.01.01
#Momentum: B.09.20.456 (*) 372.600 Nov 12 2011 
#Momentum Date and Time: Thu Jan 16 10:07:34 2014

NAME PortSet1/TwoP0_Dsolver_data/first_odd_mode_is_1/most_even_mode_is_1/PMLG4/LS0

CONSTANT NBR_OF_PORTS 2

VAR freq MAG 6

DATA GAMMA_1[1] RI
DATA Z0_1[1,1] RI
DATA LAMBADAI_1[1,1] RI
DATA Zcir_1[1,1] RI
DATA Ycir_1[1,1] RI

VAR_LIST_BEGIN
	 2000000000
	 2020000000
	 2040000000
	 2060000000
	 2658401700
	 3000000000
VAR_LIST_END

BEGIN
	 0.2253565769,	 69.5420589
	 0.2272057977,	 70.23763418
	 0.2290533086,	 70.9332359
	 0.2308991428,	 71.62886442
	 0.2854798933,	 92.45584433
	 0.3162077452,	 104.3583569
END
BEGIN
	 53.473896817812523 ,	 0.044496298736151692 
	 53.474525855735408 ,	 0.044823477257668311 
	 53.475157708474711 ,	 0.045145995472083505 
	 53.47579245259795 ,	 0.045463966271631628 
	 53.496255547031879 ,	 0.053310643851074806 
	 53.509401995847355 ,	 0.056744996990498044 
END
BEGIN
	 0.2253565769,	 69.5420589
	 0.2272057977,	 70.23763418
	 0.2290533086,	 70.9332359
	 0.2308991428,	 71.62886442
	 0.2854798933,	 92.45584433
	 0.3162077452,	 104.3583569
END
BEGIN
	 0.02377384706,	 7.855069959e-010
	 0.02389355388,	 7.85517978e-010
	 0.02401269201,	 7.8552926e-010
	 0.02413127047,	 7.855408398e-010
	 0.02745524561,	 7.860098489e-010
	 0.02919401696,	 7.863700684e-010
END
BEGIN
	 1.9953432536618563 ,	 3.8987465449122872e-008 
	 2.0154479445394173 ,	 3.8987091710333989e-008 
	 2.0355563904796181 ,	 3.8986728789329274e-008 
	 2.0556686054710385 ,	 3.8986376456751237e-008 
	 2.6592305592439822 ,	 3.8979778797457033e-008 
	 3.0053994912181055 ,	 3.8978467139367744e-008 
END
CITIFILE A.01.01
NAME PortSet2/TwoP0_Dsolver_data/first_odd_mode_is_1/most_even_mode_is_1/PMLG4/LS0

VAR freq MAG 6

DATA GAMMA_1[1] RI
DATA Z0_1[1,1] RI
DATA LAMBADAI_1[1,1] RI
DATA Zcir_1[1,1] RI
DATA Ycir_1[1,1] RI

VAR_LIST_BEGIN
	 2000000000
	 2020000000
	 2040000000
	 2060000000
	 2658401700
	 3000000000
VAR_LIST_END

BEGIN
	 0.2253565769,	 69.5420589
	 0.2272057977,	 70.23763418
	 0.2290533086,	 70.9332359
	 0.2308991428,	 71.62886442
	 0.2854798933,	 92.45584433
	 0.3162077452,	 104.3583569
END
BEGIN
	 53.473896817812523 ,	 0.044496298736151692 
	 53.474525855735408 ,	 0.044823477257668311 
	 53.475157708474711 ,	 0.045145995472083505 
	 53.47579245259795 ,	 0.045463966271631628 
	 53.496255547031879 ,	 0.053310643851074806 
	 53.509401995847355 ,	 0.056744996990498044 
END
BEGIN
	 0.2253565769,	 69.5420589
	 0.2272057977,	 70.23763418
	 0.2290533086,	 70.9332359
	 0.2308991428,	 71.62886442
	 0.2854798933,	 92.45584433
	 0.3162077452,	 104.3583569
END
BEGIN
	 0.02377384706,	 7.855069959e-010
	 0.02389355388,	 7.85517978e-010
	 0.02401269201,	 7.8552926e-010
	 0.02413127047,	 7.855408398e-010
	 0.02745524561,	 7.860098489e-010
	 0.02919401696,	 7.863700684e-010
END
BEGIN
	 1.9953432536618563 ,	 3.8987465449122872e-008 
	 2.0154479445394173 ,	 3.8987091710333989e-008 
	 2.0355563904796181 ,	 3.8986728789329274e-008 
	 2.0556686054710385 ,	 3.8986376456751237e-008 
	 2.6592305592439822 ,	 3.8979778797457033e-008 
	 3.0053994912181055 ,	 3.8978467139367744e-008 
END
