CITIFILE A.01.01
#Momentum: B.09.20.456 (*) 372.600 Nov 12 2011 
#Momentum Date and Time: Tue Jan 14 16:13:06 2014

NAME Momentum.SP

#  mode: MW    project: proj    reference: S_50

CONSTANT NBR_OF_PORTS 2

CONSTANT NORMALIZATION 1

VAR freq MAG 13

DATA S[1,1] RI
DATA S[1,2] RI
DATA S[2,1] RI
DATA S[2,2] RI
DATA S_50[1,1] RI
DATA S_50[1,2] RI
DATA S_50[2,1] RI
DATA S_50[2,2] RI
DATA S_Z0[1,1] RI
DATA S_Z0[1,2] RI
DATA S_Z0[2,1] RI
DATA S_Z0[2,2] RI
DATA GAMMA[1] RI
DATA GAMMA[2] RI
DATA Z0[1] RI
DATA Z0[2] RI
DATA PORTZ[1] RI
DATA PORTZ[2] RI

VAR_LIST_BEGIN
	 2000000000
	 2166666667
	 2333333333
	 2388888889
	 2416666667
	 2444444444
	 2462962963
	 2486111112
	 2509259260
	 2555555556
	 2666666667
	 2833333334
	 3000000000
VAR_LIST_END

BEGIN
	-0.620847679,	 0.765527272
	-0.272567428,	 0.943905591
	 0.257233055,	 0.922226804
	 0.55895154,	 0.523818139
	 0.191679026,	 0.386994427
	 0.115295268,	 0.214455198
	-0.126630931,	 0.396895914
	-0.0407680799,	 0.371249876
	-0.379677796,	 0.675264102
	 0.0109512047,	 0.955245649
	 0.41339459,	 0.887838446
	 0.731496129,	 0.65615091
	 0.913235984,	 0.363396811
END
BEGIN
	-0.000145643878,	 0.000455093895
	-0.000954064412,	 0.000818138651
	-0.0183529333,	 0.0153170106
	-0.00829448696,	 0.215249487
	 0.539471669,	-0.0313422172
	 0.0370131852,	-0.645168511
	-0.492361289,	-0.36054452
	-0.465462309,	 0.316180685
	 0.119731123,	 0.210697648
	 0.0354473586,	 0.0074087181
	 0.00417390943,	-0.00167122616
	 0.000866039874,	-0.00122051392
	 0.000154437646,	-0.00120120097
END
BEGIN
	-0.000145643878,	 0.000455093895
	-0.000954064412,	 0.000818138651
	-0.0183529333,	 0.0153170106
	-0.00829448696,	 0.215249487
	 0.539471669,	-0.0313422172
	 0.0370131852,	-0.645168511
	-0.492361289,	-0.36054452
	-0.465462309,	 0.316180685
	 0.119731123,	 0.210697648
	 0.0354473586,	 0.0074087181
	 0.00417390943,	-0.00167122616
	 0.000866039874,	-0.00122051392
	 0.000154437646,	-0.00120120097
END
BEGIN
	-0.60975058,	 0.774531901
	-0.260410989,	 0.947508524
	 0.265098816,	 0.92050651
	 0.561480009,	 0.525386155
	 0.199734386,	 0.388724401
	 0.118741908,	 0.219139138
	-0.117348531,	 0.402486207
	-0.0338925899,	 0.372275639
	-0.37010112,	 0.680843181
	 0.0222258267,	 0.955341187
	 0.421015397,	 0.884489458
	 0.734913966,	 0.652588705
	 0.914274658,	 0.361156958
END
BEGIN
	-0.620847679,	 0.765527272
	-0.272567428,	 0.943905591
	 0.257233055,	 0.922226804
	 0.55895154,	 0.523818139
	 0.191679026,	 0.386994427
	 0.115295268,	 0.214455198
	-0.126630931,	 0.396895914
	-0.0407680799,	 0.371249876
	-0.379677796,	 0.675264102
	 0.0109512047,	 0.955245649
	 0.41339459,	 0.887838446
	 0.731496129,	 0.65615091
	 0.913235984,	 0.363396811
END
BEGIN
	-0.000145643878,	 0.000455093895
	-0.000954064412,	 0.000818138651
	-0.0183529333,	 0.0153170106
	-0.00829448696,	 0.215249487
	 0.539471669,	-0.0313422172
	 0.0370131852,	-0.645168511
	-0.492361289,	-0.36054452
	-0.465462309,	 0.316180685
	 0.119731123,	 0.210697648
	 0.0354473586,	 0.0074087181
	 0.00417390943,	-0.00167122616
	 0.000866039874,	-0.00122051392
	 0.000154437646,	-0.00120120097
END
BEGIN
	-0.000145643878,	 0.000455093895
	-0.000954064412,	 0.000818138651
	-0.0183529333,	 0.0153170106
	-0.00829448696,	 0.215249487
	 0.539471669,	-0.0313422172
	 0.0370131852,	-0.645168511
	-0.492361289,	-0.36054452
	-0.465462309,	 0.316180685
	 0.119731123,	 0.210697648
	 0.0354473586,	 0.0074087181
	 0.00417390943,	-0.00167122616
	 0.000866039874,	-0.00122051392
	 0.000154437646,	-0.00120120097
END
BEGIN
	-0.60975058,	 0.774531901
	-0.260410989,	 0.947508524
	 0.265098816,	 0.92050651
	 0.561480009,	 0.525386155
	 0.199734386,	 0.388724401
	 0.118741908,	 0.219139138
	-0.117348531,	 0.402486207
	-0.0338925899,	 0.372275639
	-0.37010112,	 0.680843181
	 0.0222258267,	 0.955341187
	 0.421015397,	 0.884489458
	 0.734913966,	 0.652588705
	 0.914274658,	 0.361156958
END
BEGIN
	-0.658984844,	 0.733784724
	-0.331971141,	 0.925077705
	 0.196442218,	 0.936382783
	 0.523971224,	 0.543141188
	 0.16398567,	 0.391062871
	 0.0662262478,	 0.214076006
	-0.161572747,	 0.405425785
	-0.0744875282,	 0.360389736
	-0.423561265,	 0.659261646
	-0.0530433426,	 0.953951935
	 0.357496337,	 0.91120473
	 0.699728072,	 0.688699495
	 0.902508178,	 0.386502071
END
BEGIN
	-0.000161047707,	 0.000428323282
	-0.000982777842,	 0.000741563711
	-0.0195618331,	 0.0143584037
	-0.0165936449,	 0.222768605
	 0.546640539,	-0.0176168806
	 0.0463411949,	-0.648535272
	-0.477944995,	-0.3698694
	-0.471073709,	 0.303695555
	 0.107286403,	 0.209974072
	 0.0348403114,	 0.00964283097
	 0.00437853555,	-0.001452918
	 0.000965934013,	-0.00123830826
	 0.000196566022,	-0.00127283604
END
BEGIN
	-0.000161047707,	 0.000428323282
	-0.000982777842,	 0.000741563711
	-0.0195618331,	 0.0143584037
	-0.0165936449,	 0.222768605
	 0.546640539,	-0.0176168806
	 0.0463411949,	-0.648535272
	-0.477944995,	-0.3698694
	-0.471073709,	 0.303695555
	 0.107286403,	 0.209974072
	 0.0348403114,	 0.00964283097
	 0.00437853555,	-0.001452918
	 0.000965934013,	-0.00123830826
	 0.000196566022,	-0.00127283604
END
BEGIN
	-0.648795875,	 0.742932061
	-0.320298079,	 0.929346076
	 0.204528519,	 0.935135196
	 0.526537897,	 0.544857474
	 0.172097278,	 0.39302296
	 0.0696304658,	 0.218836404
	-0.152524667,	 0.411206229
	-0.0676597759,	 0.361574799
	-0.414487554,	 0.665100929
	-0.0418086276,	 0.954767057
	 0.365517102,	 0.908244069
	 0.703485038,	 0.685123204
	 0.903674327,	 0.384145641
END
BEGIN
	 0.206898406,	 69.5230509
	 0.220709346,	 75.3197183
	 0.234419283,	 81.1183608
	 0.238967031,	 83.0517336
	 0.241236741,	 84.0185189
	 0.243503674,	 84.9853721
	 0.245013421,	 85.6299793
	 0.246898871,	 86.4357824
	 0.248782394,	 87.2416352
	 0.252543662,	 88.8534934
	 0.261541256,	 92.7227911
	 0.27500398,	 98.5284448
	 0.288389493,	 104.336886
END
BEGIN
	 0.206898344,	 69.5230964
	 0.22070929,	 75.3197676
	 0.234419234,	 81.118414
	 0.238966985,	 83.0517882
	 0.241236695,	 84.0185741
	 0.24350363,	 84.9854279
	 0.245013377,	 85.6300356
	 0.246898828,	 86.4358393
	 0.248782352,	 87.2416927
	 0.252543623,	 88.8535519
	 0.261541222,	 92.7228523
	 0.275003955,	 98.52851
	 0.288389476,	 104.336955
END
BEGIN
	 53.488999100000001 ,	 0.030355292150000001 
	 53.493616469999999 ,	 0.03293063215 
	 53.498503640000003 ,	 0.03523000079 
	 53.500192679999998 ,	 0.035944989310000001 
	 53.501048449999999 ,	 0.036293830380000003 
	 53.501911700000001 ,	 0.036637164440000002 
	 53.502491370000001 ,	 0.036863086250000003 
	 53.503220630000001 ,	 0.037142243089999999 
	 53.503955079999997 ,	 0.037417886849999998 
	 53.505439590000002 ,	 0.037959016319999997 
	 53.509089119999999 ,	 0.039205153790000002 
	 53.51483648 ,	 0.040928938720000002 
	 53.520874689999999 ,	 0.042521598100000002 
END
BEGIN
	 53.488501169999999 ,	 0.030355318780000001 
	 53.493118500000001 ,	 0.032930626099999999 
	 53.498005620000001 ,	 0.035229965670000002 
	 53.499694650000002 ,	 0.035944945169999999 
	 53.500550410000002 ,	 0.036293781839999997 
	 53.501413659999997 ,	 0.036637111569999999 
	 53.501993319999997 ,	 0.036863030540000001 
	 53.502722570000003 ,	 0.037142183859999997 
	 53.50345703 ,	 0.037417824160000002 
	 53.504941520000003 ,	 0.037958946819999999 
	 53.508591029999998 ,	 0.039205068570000001 
	 53.514338340000002 ,	 0.040928831899999997 
	 53.520376499999998 ,	 0.042521471370000001 
END
BEGIN
	 50 ,	 0 
	 50 ,	 0 
	 50 ,	 0 
	 50 ,	 0 
	 50 ,	 0 
	 50 ,	 0 
	 50 ,	 0 
	 50 ,	 0 
	 50 ,	 0 
	 50 ,	 0 
	 50 ,	 0 
	 50 ,	 0 
	 50 ,	 0 
END
BEGIN
	 50 ,	 0 
	 50 ,	 0 
	 50 ,	 0 
	 50 ,	 0 
	 50 ,	 0 
	 50 ,	 0 
	 50 ,	 0 
	 50 ,	 0 
	 50 ,	 0 
	 50 ,	 0 
	 50 ,	 0 
	 50 ,	 0 
	 50 ,	 0 
END
